# vsim -c -L /home/minhnhut/Documents/EdgeNPU/build/uvm/work -work /home/minhnhut/Documents/EdgeNPU/build/uvm/work npu_uvm_tb "+UVM_TESTNAME=npu_conv_test" "+UVM_VERBOSITY=UVM_MEDIUM" -do "run -all; quit -f" -l /home/minhnhut/Documents/EdgeNPU/build/uvm/sim_npu_conv_test.log 
# Start time: 02:23:58 on Jan 07,2026
# ** Note: (vsim-8009) Loading existing optimized design _opt
# //  Questa Sim-64
# //  Version 2021.2_1 linux_x86_64 May 15 2021
# //
# //  Copyright 1991-2021 Mentor Graphics Corporation
# //  All Rights Reserved.
# //
# //  QuestaSim and its associated documentation contain trade
# //  secrets and commercial or financial information that are the property of
# //  Mentor Graphics Corporation and are privileged, confidential,
# //  and exempt from disclosure under the Freedom of Information Act,
# //  5 U.S.C. Section 552. Furthermore, this information
# //  is prohibited from disclosure under the Trade Secrets Act,
# //  18 U.S.C. Section 1905.
# //
# Loading sv_std.std
# Loading work.axil_if(fast)
# Loading work.npu_pkg(fast)
# Loading mtiUvm.uvm_pkg(fast)
# Loading work.npu_uvm_pkg(fast)
# Loading mtiUvm.questa_uvm_pkg(fast)
# Loading work.npu_uvm_tb(fast)
# Loading /home/minhnhut/Downloads/mentor_graphic/questasim/install/questasim/uvm-1.1d/linux_x86_64/uvm_dpi.so
# run -all
# ----------------------------------------------------------------
# UVM-1.1d
# (C) 2007-2013 Mentor Graphics Corporation
# (C) 2007-2013 Cadence Design Systems, Inc.
# (C) 2006-2013 Synopsys, Inc.
# (C) 2011-2013 Cypress Semiconductor Corp.
# ----------------------------------------------------------------
# 
#   ***********       IMPORTANT RELEASE NOTES         ************
# 
#   You are using a version of the UVM library that has been compiled
#   with `UVM_NO_DEPRECATED undefined.
#   See http://www.eda.org/svdb/view.php?id=3313 for more details.
# 
#   You are using a version of the UVM library that has been compiled
#   with `UVM_OBJECT_MUST_HAVE_CONSTRUCTOR undefined.
#   See http://www.eda.org/svdb/view.php?id=3770 for more details.
# 
#       (Specify +UVM_NO_RELNOTES to turn off this notice)
# 
# UVM_INFO verilog_src/questa_uvm_pkg-1.2/src/questa_uvm_pkg.sv(277) @ 0: reporter [Questa UVM] QUESTA_UVM-1.2.3
# UVM_INFO verilog_src/questa_uvm_pkg-1.2/src/questa_uvm_pkg.sv(278) @ 0: reporter [Questa UVM]  questa_uvm::init(+struct)
# UVM_INFO @ 0: reporter [RNTST] Running test npu_conv_test...
# UVM_INFO /home/minhnhut/Documents/EdgeNPU/verification/uvm/tests/npu_base_test.sv(52) @ 0: uvm_test_top [BASE_TEST] UVM Topology:
# UVM_INFO @ 0: reporter [UVMTOP] UVM testbench topology:
# --------------------------------------------------------------
# Name                       Type                    Size  Value
# --------------------------------------------------------------
# uvm_test_top               npu_conv_test           -     @471 
#   env                      npu_env                 -     @478 
#     axil_agt               axil_agent              -     @485 
#       driver               axil_driver             -     @538 
#         rsp_port           uvm_analysis_port       -     @553 
#         seq_item_port      uvm_seq_item_pull_port  -     @545 
#       monitor              axil_monitor            -     @523 
#         ap                 uvm_analysis_port       -     @530 
#       sequencer            uvm_sequencer           -     @561 
#         rsp_export         uvm_analysis_export     -     @568 
#         seq_item_export    uvm_seq_item_pull_imp   -     @662 
#         arbitration_queue  array                   0     -    
#         lock_queue         array                   0     -    
#         num_last_reqs      integral                32    'd1  
#         num_last_rsps      integral                32    'd1  
#     coverage               npu_coverage            -     @507 
#       analysis_imp         uvm_analysis_imp        -     @514 
#     scoreboard             npu_scoreboard          -     @492 
#       axil_export          uvm_analysis_imp        -     @499 
# --------------------------------------------------------------
# 
# UVM_INFO /home/minhnhut/Documents/EdgeNPU/verification/uvm/tests/npu_base_test.sv(63) @ 0: uvm_test_top [BASE_TEST] Starting test...
# UVM_INFO /home/minhnhut/Documents/EdgeNPU/verification/uvm/tests/npu_conv_test.sv(32) @ 200000: uvm_test_top [CONV_TEST] Running 5 convolution iterations
# UVM_INFO /home/minhnhut/Documents/EdgeNPU/verification/uvm/tests/npu_conv_test.sv(35) @ 200000: uvm_test_top [CONV_TEST] Iteration 1/5
# UVM_INFO /home/minhnhut/Documents/EdgeNPU/verification/uvm/sequences/npu_conv_seq.sv(45) @ 200000: uvm_test_top.env.axil_agt.sequencer@@seq_0 [NPU_CONV_SEQ] Starting conv test: 5x8x3 -> 3, k=1, s=2
# [NPU_TOP] @215000: AXI-Lite Write: addr=0x00000000, data=0x00000004
# [NPU_TOP] @215000: reg_ctrl <= 0x00000004
# [NPU_TOP] @225000: AXI-Lite Write: addr=0x00000000, data=0x00000004
# [NPU_TOP] @225000: reg_ctrl <= 0x00000004
# UVM_INFO /home/minhnhut/Documents/EdgeNPU/verification/uvm/agents/axil_agent/axil_driver.sv(103) @ 245000: uvm_test_top.env.axil_agt.driver [AXIL_DRV] Write: addr=0x00000000, data=0x00000004
# UVM_INFO /home/minhnhut/Documents/EdgeNPU/verification/uvm/sequences/npu_base_seq.sv(33) @ 245000: uvm_test_top.env.axil_agt.sequencer@@seq_0 [NPU_SEQ] Write: addr=0x00000000, data=0x00000004
# [NPU_TOP] @255000: AXI-Lite Write: addr=0x00000000, data=0x00000000
# [NPU_TOP] @255000: reg_ctrl <= 0x00000000
# [NPU_TOP] @265000: AXI-Lite Write: addr=0x00000000, data=0x00000000
# [NPU_TOP] @265000: reg_ctrl <= 0x00000000
# UVM_INFO /home/minhnhut/Documents/EdgeNPU/verification/uvm/agents/axil_agent/axil_driver.sv(103) @ 285000: uvm_test_top.env.axil_agt.driver [AXIL_DRV] Write: addr=0x00000000, data=0x00000000
# UVM_INFO /home/minhnhut/Documents/EdgeNPU/verification/uvm/sequences/npu_base_seq.sv(33) @ 285000: uvm_test_top.env.axil_agt.sequencer@@seq_0 [NPU_SEQ] Write: addr=0x00000000, data=0x00000000
# [NPU_TOP] @295000: AXI-Lite Write: addr=0x00000000, data=0x00000001
# [NPU_TOP] @295000: reg_ctrl <= 0x00000001
# [NPU_TOP] @305000: AXI-Lite Write: addr=0x00000000, data=0x00000001
# [NPU_TOP] @305000: reg_ctrl <= 0x00000001
# UVM_INFO /home/minhnhut/Documents/EdgeNPU/verification/uvm/agents/axil_agent/axil_driver.sv(103) @ 325000: uvm_test_top.env.axil_agt.driver [AXIL_DRV] Write: addr=0x00000000, data=0x00000001
# UVM_INFO /home/minhnhut/Documents/EdgeNPU/verification/uvm/sequences/npu_base_seq.sv(33) @ 325000: uvm_test_top.env.axil_agt.sequencer@@seq_0 [NPU_SEQ] Write: addr=0x00000000, data=0x00000001
# UVM_INFO /home/minhnhut/Documents/EdgeNPU/verification/uvm/sequences/npu_conv_seq.sv(57) @ 325000: uvm_test_top.env.axil_agt.sequencer@@seq_0 [NPU_CONV_SEQ] Loading weights via DMA
# [NPU_TOP] @335000: AXI-Lite Write: addr=0x00000108, data=0x80000000
# [NPU_TOP] @345000: AXI-Lite Write: addr=0x00000108, data=0x80000000
# UVM_INFO /home/minhnhut/Documents/EdgeNPU/verification/uvm/agents/axil_agent/axil_driver.sv(103) @ 365000: uvm_test_top.env.axil_agt.driver [AXIL_DRV] Write: addr=0x00000108, data=0x80000000
# UVM_INFO /home/minhnhut/Documents/EdgeNPU/verification/uvm/sequences/npu_base_seq.sv(33) @ 365000: uvm_test_top.env.axil_agt.sequencer@@seq_0 [NPU_SEQ] Write: addr=0x00000108, data=0x80000000
# [NPU_TOP] @375000: AXI-Lite Write: addr=0x0000010c, data=0x00000000
# [NPU_TOP] @385000: AXI-Lite Write: addr=0x0000010c, data=0x00000000
# UVM_INFO /home/minhnhut/Documents/EdgeNPU/verification/uvm/agents/axil_agent/axil_driver.sv(103) @ 405000: uvm_test_top.env.axil_agt.driver [AXIL_DRV] Write: addr=0x0000010c, data=0x00000000
# UVM_INFO /home/minhnhut/Documents/EdgeNPU/verification/uvm/sequences/npu_base_seq.sv(33) @ 405000: uvm_test_top.env.axil_agt.sequencer@@seq_0 [NPU_SEQ] Write: addr=0x0000010c, data=0x00000000
# [NPU_TOP] @415000: AXI-Lite Write: addr=0x00000110, data=0x00000009
# [NPU_TOP] @425000: AXI-Lite Write: addr=0x00000110, data=0x00000009
# UVM_INFO /home/minhnhut/Documents/EdgeNPU/verification/uvm/agents/axil_agent/axil_driver.sv(103) @ 445000: uvm_test_top.env.axil_agt.driver [AXIL_DRV] Write: addr=0x00000110, data=0x00000009
# UVM_INFO /home/minhnhut/Documents/EdgeNPU/verification/uvm/sequences/npu_base_seq.sv(33) @ 445000: uvm_test_top.env.axil_agt.sequencer@@seq_0 [NPU_SEQ] Write: addr=0x00000110, data=0x00000009
# [NPU_TOP] @455000: AXI-Lite Write: addr=0x00000100, data=0x00000001
# [NPU_TOP] @465000: AXI-Lite Write: addr=0x00000100, data=0x00000001
# UVM_INFO /home/minhnhut/Documents/EdgeNPU/verification/uvm/agents/axil_agent/axil_driver.sv(103) @ 485000: uvm_test_top.env.axil_agt.driver [AXIL_DRV] Write: addr=0x00000100, data=0x00000001
# UVM_INFO /home/minhnhut/Documents/EdgeNPU/verification/uvm/sequences/npu_base_seq.sv(33) @ 485000: uvm_test_top.env.axil_agt.sequencer@@seq_0 [NPU_SEQ] Write: addr=0x00000100, data=0x00000001
# UVM_INFO /home/minhnhut/Documents/EdgeNPU/verification/uvm/sequences/npu_conv_seq.sv(77) @ 486000: uvm_test_top.env.axil_agt.sequencer@@seq_0 [NPU_CONV_SEQ] Loading input via DMA
# [NPU_TOP] @495000: AXI-Lite Write: addr=0x00000108, data=0x80100000
# [NPU_TOP] @505000: AXI-Lite Write: addr=0x00000108, data=0x80100000
# UVM_INFO /home/minhnhut/Documents/EdgeNPU/verification/uvm/agents/axil_agent/axil_driver.sv(103) @ 525000: uvm_test_top.env.axil_agt.driver [AXIL_DRV] Write: addr=0x00000108, data=0x80100000
# UVM_INFO /home/minhnhut/Documents/EdgeNPU/verification/uvm/sequences/npu_base_seq.sv(33) @ 525000: uvm_test_top.env.axil_agt.sequencer@@seq_0 [NPU_SEQ] Write: addr=0x00000108, data=0x80100000
# [NPU_TOP] @535000: AXI-Lite Write: addr=0x0000010c, data=0x00040000
# [NPU_TOP] @545000: AXI-Lite Write: addr=0x0000010c, data=0x00040000
# UVM_INFO /home/minhnhut/Documents/EdgeNPU/verification/uvm/agents/axil_agent/axil_driver.sv(103) @ 565000: uvm_test_top.env.axil_agt.driver [AXIL_DRV] Write: addr=0x0000010c, data=0x00040000
# UVM_INFO /home/minhnhut/Documents/EdgeNPU/verification/uvm/sequences/npu_base_seq.sv(33) @ 565000: uvm_test_top.env.axil_agt.sequencer@@seq_0 [NPU_SEQ] Write: addr=0x0000010c, data=0x00040000
# [NPU_TOP] @575000: AXI-Lite Write: addr=0x00000110, data=0x00000078
# [NPU_TOP] @585000: AXI-Lite Write: addr=0x00000110, data=0x00000078
# UVM_INFO /home/minhnhut/Documents/EdgeNPU/verification/uvm/agents/axil_agent/axil_driver.sv(103) @ 605000: uvm_test_top.env.axil_agt.driver [AXIL_DRV] Write: addr=0x00000110, data=0x00000078
# UVM_INFO /home/minhnhut/Documents/EdgeNPU/verification/uvm/sequences/npu_base_seq.sv(33) @ 605000: uvm_test_top.env.axil_agt.sequencer@@seq_0 [NPU_SEQ] Write: addr=0x00000110, data=0x00000078
# [NPU_TOP] @615000: AXI-Lite Write: addr=0x00000100, data=0x00000001
# [NPU_TOP] @625000: AXI-Lite Write: addr=0x00000100, data=0x00000001
# UVM_INFO /home/minhnhut/Documents/EdgeNPU/verification/uvm/agents/axil_agent/axil_driver.sv(103) @ 645000: uvm_test_top.env.axil_agt.driver [AXIL_DRV] Write: addr=0x00000100, data=0x00000001
# UVM_INFO /home/minhnhut/Documents/EdgeNPU/verification/uvm/sequences/npu_base_seq.sv(33) @ 645000: uvm_test_top.env.axil_agt.sequencer@@seq_0 [NPU_SEQ] Write: addr=0x00000100, data=0x00000001
# UVM_INFO /home/minhnhut/Documents/EdgeNPU/verification/uvm/sequences/npu_conv_seq.sv(89) @ 646000: uvm_test_top.env.axil_agt.sequencer@@seq_0 [NPU_CONV_SEQ] Starting NPU execution
# [NPU_TOP] @655000: AXI-Lite Write: addr=0x00000000, data=0x00000003
# [NPU_TOP] @655000: reg_ctrl <= 0x00000003
# [NPU_TOP] @665000: AXI-Lite Write: addr=0x00000000, data=0x00000003
# [NPU_TOP] @665000: reg_ctrl <= 0x00000003
# UVM_INFO /home/minhnhut/Documents/EdgeNPU/verification/uvm/agents/axil_agent/axil_driver.sv(103) @ 685000: uvm_test_top.env.axil_agt.driver [AXIL_DRV] Write: addr=0x00000000, data=0x00000003
# UVM_INFO /home/minhnhut/Documents/EdgeNPU/verification/uvm/sequences/npu_base_seq.sv(33) @ 685000: uvm_test_top.env.axil_agt.sequencer@@seq_0 [NPU_SEQ] Write: addr=0x00000000, data=0x00000003
# UVM_INFO /home/minhnhut/Documents/EdgeNPU/verification/uvm/sequences/npu_conv_seq.sv(95) @ 685000: uvm_test_top.env.axil_agt.sequencer@@seq_0 [NPU_CONV_SEQ] Waiting for completion
# UVM_INFO /home/minhnhut/Documents/EdgeNPU/verification/uvm/agents/axil_agent/axil_driver.sv(140) @ 735000: uvm_test_top.env.axil_agt.driver [AXIL_DRV] Read: addr=0x00000004, data=0x00000011
# UVM_INFO /home/minhnhut/Documents/EdgeNPU/verification/uvm/sequences/npu_base_seq.sv(46) @ 735000: uvm_test_top.env.axil_agt.sequencer@@seq_0 [NPU_SEQ] Read: addr=0x00000004, data=0x00000011
# UVM_INFO /home/minhnhut/Documents/EdgeNPU/verification/uvm/agents/axil_agent/axil_driver.sv(140) @ 785000: uvm_test_top.env.axil_agt.driver [AXIL_DRV] Read: addr=0x00000004, data=0x00000011
# UVM_INFO /home/minhnhut/Documents/EdgeNPU/verification/uvm/sequences/npu_base_seq.sv(46) @ 785000: uvm_test_top.env.axil_agt.sequencer@@seq_0 [NPU_SEQ] Read: addr=0x00000004, data=0x00000011
# UVM_INFO /home/minhnhut/Documents/EdgeNPU/verification/uvm/agents/axil_agent/axil_driver.sv(140) @ 835000: uvm_test_top.env.axil_agt.driver [AXIL_DRV] Read: addr=0x00000004, data=0x00000011
# UVM_INFO /home/minhnhut/Documents/EdgeNPU/verification/uvm/sequences/npu_base_seq.sv(46) @ 835000: uvm_test_top.env.axil_agt.sequencer@@seq_0 [NPU_SEQ] Read: addr=0x00000004, data=0x00000011
# UVM_INFO /home/minhnhut/Documents/EdgeNPU/verification/uvm/agents/axil_agent/axil_driver.sv(140) @ 885000: uvm_test_top.env.axil_agt.driver [AXIL_DRV] Read: addr=0x00000004, data=0x00000011
# UVM_INFO /home/minhnhut/Documents/EdgeNPU/verification/uvm/sequences/npu_base_seq.sv(46) @ 885000: uvm_test_top.env.axil_agt.sequencer@@seq_0 [NPU_SEQ] Read: addr=0x00000004, data=0x00000011
# UVM_INFO /home/minhnhut/Documents/EdgeNPU/verification/uvm/agents/axil_agent/axil_driver.sv(140) @ 935000: uvm_test_top.env.axil_agt.driver [AXIL_DRV] Read: addr=0x00000004, data=0x00000011
# UVM_INFO /home/minhnhut/Documents/EdgeNPU/verification/uvm/sequences/npu_base_seq.sv(46) @ 935000: uvm_test_top.env.axil_agt.sequencer@@seq_0 [NPU_SEQ] Read: addr=0x00000004, data=0x00000011
# UVM_INFO /home/minhnhut/Documents/EdgeNPU/verification/uvm/agents/axil_agent/axil_driver.sv(140) @ 985000: uvm_test_top.env.axil_agt.driver [AXIL_DRV] Read: addr=0x00000004, data=0x00000011
# UVM_INFO /home/minhnhut/Documents/EdgeNPU/verification/uvm/sequences/npu_base_seq.sv(46) @ 985000: uvm_test_top.env.axil_agt.sequencer@@seq_0 [NPU_SEQ] Read: addr=0x00000004, data=0x00000011
# UVM_INFO /home/minhnhut/Documents/EdgeNPU/verification/uvm/agents/axil_agent/axil_driver.sv(140) @ 1035000: uvm_test_top.env.axil_agt.driver [AXIL_DRV] Read: addr=0x00000004, data=0x00000011
# UVM_INFO /home/minhnhut/Documents/EdgeNPU/verification/uvm/sequences/npu_base_seq.sv(46) @ 1035000: uvm_test_top.env.axil_agt.sequencer@@seq_0 [NPU_SEQ] Read: addr=0x00000004, data=0x00000011
# UVM_INFO /home/minhnhut/Documents/EdgeNPU/verification/uvm/agents/axil_agent/axil_driver.sv(140) @ 1085000: uvm_test_top.env.axil_agt.driver [AXIL_DRV] Read: addr=0x00000004, data=0x00000011
# UVM_INFO /home/minhnhut/Documents/EdgeNPU/verification/uvm/sequences/npu_base_seq.sv(46) @ 1085000: uvm_test_top.env.axil_agt.sequencer@@seq_0 [NPU_SEQ] Read: addr=0x00000004, data=0x00000011
# UVM_INFO /home/minhnhut/Documents/EdgeNPU/verification/uvm/agents/axil_agent/axil_driver.sv(140) @ 1135000: uvm_test_top.env.axil_agt.driver [AXIL_DRV] Read: addr=0x00000004, data=0x00000011
# UVM_INFO /home/minhnhut/Documents/EdgeNPU/verification/uvm/sequences/npu_base_seq.sv(46) @ 1135000: uvm_test_top.env.axil_agt.sequencer@@seq_0 [NPU_SEQ] Read: addr=0x00000004, data=0x00000011
# UVM_INFO /home/minhnhut/Documents/EdgeNPU/verification/uvm/agents/axil_agent/axil_driver.sv(140) @ 1185000: uvm_test_top.env.axil_agt.driver [AXIL_DRV] Read: addr=0x00000004, data=0x00000011
# UVM_INFO /home/minhnhut/Documents/EdgeNPU/verification/uvm/sequences/npu_base_seq.sv(46) @ 1185000: uvm_test_top.env.axil_agt.sequencer@@seq_0 [NPU_SEQ] Read: addr=0x00000004, data=0x00000011
# UVM_INFO /home/minhnhut/Documents/EdgeNPU/verification/uvm/agents/axil_agent/axil_driver.sv(140) @ 1235000: uvm_test_top.env.axil_agt.driver [AXIL_DRV] Read: addr=0x00000004, data=0x00000011
# UVM_INFO /home/minhnhut/Documents/EdgeNPU/verification/uvm/sequences/npu_base_seq.sv(46) @ 1235000: uvm_test_top.env.axil_agt.sequencer@@seq_0 [NPU_SEQ] Read: addr=0x00000004, data=0x00000011
# UVM_INFO /home/minhnhut/Documents/EdgeNPU/verification/uvm/agents/axil_agent/axil_driver.sv(140) @ 1285000: uvm_test_top.env.axil_agt.driver [AXIL_DRV] Read: addr=0x00000004, data=0x00000011
# UVM_INFO /home/minhnhut/Documents/EdgeNPU/verification/uvm/sequences/npu_base_seq.sv(46) @ 1285000: uvm_test_top.env.axil_agt.sequencer@@seq_0 [NPU_SEQ] Read: addr=0x00000004, data=0x00000011
# UVM_INFO /home/minhnhut/Documents/EdgeNPU/verification/uvm/agents/axil_agent/axil_driver.sv(140) @ 1335000: uvm_test_top.env.axil_agt.driver [AXIL_DRV] Read: addr=0x00000004, data=0x00000011
# UVM_INFO /home/minhnhut/Documents/EdgeNPU/verification/uvm/sequences/npu_base_seq.sv(46) @ 1335000: uvm_test_top.env.axil_agt.sequencer@@seq_0 [NPU_SEQ] Read: addr=0x00000004, data=0x00000011
# UVM_INFO /home/minhnhut/Documents/EdgeNPU/verification/uvm/agents/axil_agent/axil_driver.sv(140) @ 1385000: uvm_test_top.env.axil_agt.driver [AXIL_DRV] Read: addr=0x00000004, data=0x00000011
# UVM_INFO /home/minhnhut/Documents/EdgeNPU/verification/uvm/sequences/npu_base_seq.sv(46) @ 1385000: uvm_test_top.env.axil_agt.sequencer@@seq_0 [NPU_SEQ] Read: addr=0x00000004, data=0x00000011
# UVM_INFO /home/minhnhut/Documents/EdgeNPU/verification/uvm/agents/axil_agent/axil_driver.sv(140) @ 1435000: uvm_test_top.env.axil_agt.driver [AXIL_DRV] Read: addr=0x00000004, data=0x00000011
# UVM_INFO /home/minhnhut/Documents/EdgeNPU/verification/uvm/sequences/npu_base_seq.sv(46) @ 1435000: uvm_test_top.env.axil_agt.sequencer@@seq_0 [NPU_SEQ] Read: addr=0x00000004, data=0x00000011
# UVM_INFO /home/minhnhut/Documents/EdgeNPU/verification/uvm/agents/axil_agent/axil_driver.sv(140) @ 1485000: uvm_test_top.env.axil_agt.driver [AXIL_DRV] Read: addr=0x00000004, data=0x00000011
# UVM_INFO /home/minhnhut/Documents/EdgeNPU/verification/uvm/sequences/npu_base_seq.sv(46) @ 1485000: uvm_test_top.env.axil_agt.sequencer@@seq_0 [NPU_SEQ] Read: addr=0x00000004, data=0x00000011
# UVM_INFO /home/minhnhut/Documents/EdgeNPU/verification/uvm/agents/axil_agent/axil_driver.sv(140) @ 1535000: uvm_test_top.env.axil_agt.driver [AXIL_DRV] Read: addr=0x00000004, data=0x00000011
# UVM_INFO /home/minhnhut/Documents/EdgeNPU/verification/uvm/sequences/npu_base_seq.sv(46) @ 1535000: uvm_test_top.env.axil_agt.sequencer@@seq_0 [NPU_SEQ] Read: addr=0x00000004, data=0x00000011
# UVM_INFO /home/minhnhut/Documents/EdgeNPU/verification/uvm/agents/axil_agent/axil_driver.sv(140) @ 1585000: uvm_test_top.env.axil_agt.driver [AXIL_DRV] Read: addr=0x00000004, data=0x00000011
# UVM_INFO /home/minhnhut/Documents/EdgeNPU/verification/uvm/sequences/npu_base_seq.sv(46) @ 1585000: uvm_test_top.env.axil_agt.sequencer@@seq_0 [NPU_SEQ] Read: addr=0x00000004, data=0x00000011
# UVM_INFO /home/minhnhut/Documents/EdgeNPU/verification/uvm/agents/axil_agent/axil_driver.sv(140) @ 1635000: uvm_test_top.env.axil_agt.driver [AXIL_DRV] Read: addr=0x00000004, data=0x00000011
# UVM_INFO /home/minhnhut/Documents/EdgeNPU/verification/uvm/sequences/npu_base_seq.sv(46) @ 1635000: uvm_test_top.env.axil_agt.sequencer@@seq_0 [NPU_SEQ] Read: addr=0x00000004, data=0x00000011
# UVM_INFO /home/minhnhut/Documents/EdgeNPU/verification/uvm/agents/axil_agent/axil_driver.sv(140) @ 1685000: uvm_test_top.env.axil_agt.driver [AXIL_DRV] Read: addr=0x00000004, data=0x00000011
# UVM_INFO /home/minhnhut/Documents/EdgeNPU/verification/uvm/sequences/npu_base_seq.sv(46) @ 1685000: uvm_test_top.env.axil_agt.sequencer@@seq_0 [NPU_SEQ] Read: addr=0x00000004, data=0x00000011
# UVM_INFO /home/minhnhut/Documents/EdgeNPU/verification/uvm/agents/axil_agent/axil_driver.sv(140) @ 1735000: uvm_test_top.env.axil_agt.driver [AXIL_DRV] Read: addr=0x00000004, data=0x00000011
# UVM_INFO /home/minhnhut/Documents/EdgeNPU/verification/uvm/sequences/npu_base_seq.sv(46) @ 1735000: uvm_test_top.env.axil_agt.sequencer@@seq_0 [NPU_SEQ] Read: addr=0x00000004, data=0x00000011
# UVM_INFO /home/minhnhut/Documents/EdgeNPU/verification/uvm/agents/axil_agent/axil_driver.sv(140) @ 1785000: uvm_test_top.env.axil_agt.driver [AXIL_DRV] Read: addr=0x00000004, data=0x00000011
# UVM_INFO /home/minhnhut/Documents/EdgeNPU/verification/uvm/sequences/npu_base_seq.sv(46) @ 1785000: uvm_test_top.env.axil_agt.sequencer@@seq_0 [NPU_SEQ] Read: addr=0x00000004, data=0x00000011
# UVM_INFO /home/minhnhut/Documents/EdgeNPU/verification/uvm/agents/axil_agent/axil_driver.sv(140) @ 1835000: uvm_test_top.env.axil_agt.driver [AXIL_DRV] Read: addr=0x00000004, data=0x00000011
# UVM_INFO /home/minhnhut/Documents/EdgeNPU/verification/uvm/sequences/npu_base_seq.sv(46) @ 1835000: uvm_test_top.env.axil_agt.sequencer@@seq_0 [NPU_SEQ] Read: addr=0x00000004, data=0x00000011
# UVM_INFO /home/minhnhut/Documents/EdgeNPU/verification/uvm/agents/axil_agent/axil_driver.sv(140) @ 1885000: uvm_test_top.env.axil_agt.driver [AXIL_DRV] Read: addr=0x00000004, data=0x00000011
# UVM_INFO /home/minhnhut/Documents/EdgeNPU/verification/uvm/sequences/npu_base_seq.sv(46) @ 1885000: uvm_test_top.env.axil_agt.sequencer@@seq_0 [NPU_SEQ] Read: addr=0x00000004, data=0x00000011
# UVM_INFO /home/minhnhut/Documents/EdgeNPU/verification/uvm/agents/axil_agent/axil_driver.sv(140) @ 1935000: uvm_test_top.env.axil_agt.driver [AXIL_DRV] Read: addr=0x00000004, data=0x00000011
# UVM_INFO /home/minhnhut/Documents/EdgeNPU/verification/uvm/sequences/npu_base_seq.sv(46) @ 1935000: uvm_test_top.env.axil_agt.sequencer@@seq_0 [NPU_SEQ] Read: addr=0x00000004, data=0x00000011
# UVM_INFO /home/minhnhut/Documents/EdgeNPU/verification/uvm/agents/axil_agent/axil_driver.sv(140) @ 1985000: uvm_test_top.env.axil_agt.driver [AXIL_DRV] Read: addr=0x00000004, data=0x00000011
# UVM_INFO /home/minhnhut/Documents/EdgeNPU/verification/uvm/sequences/npu_base_seq.sv(46) @ 1985000: uvm_test_top.env.axil_agt.sequencer@@seq_0 [NPU_SEQ] Read: addr=0x00000004, data=0x00000011
# UVM_INFO /home/minhnhut/Documents/EdgeNPU/verification/uvm/agents/axil_agent/axil_driver.sv(140) @ 2035000: uvm_test_top.env.axil_agt.driver [AXIL_DRV] Read: addr=0x00000004, data=0x00000011
# UVM_INFO /home/minhnhut/Documents/EdgeNPU/verification/uvm/sequences/npu_base_seq.sv(46) @ 2035000: uvm_test_top.env.axil_agt.sequencer@@seq_0 [NPU_SEQ] Read: addr=0x00000004, data=0x00000011
# UVM_INFO /home/minhnhut/Documents/EdgeNPU/verification/uvm/agents/axil_agent/axil_driver.sv(140) @ 2085000: uvm_test_top.env.axil_agt.driver [AXIL_DRV] Read: addr=0x00000004, data=0x00000011
# UVM_INFO /home/minhnhut/Documents/EdgeNPU/verification/uvm/sequences/npu_base_seq.sv(46) @ 2085000: uvm_test_top.env.axil_agt.sequencer@@seq_0 [NPU_SEQ] Read: addr=0x00000004, data=0x00000011
# UVM_INFO /home/minhnhut/Documents/EdgeNPU/verification/uvm/agents/axil_agent/axil_driver.sv(140) @ 2135000: uvm_test_top.env.axil_agt.driver [AXIL_DRV] Read: addr=0x00000004, data=0x00000011
# UVM_INFO /home/minhnhut/Documents/EdgeNPU/verification/uvm/sequences/npu_base_seq.sv(46) @ 2135000: uvm_test_top.env.axil_agt.sequencer@@seq_0 [NPU_SEQ] Read: addr=0x00000004, data=0x00000011
# UVM_INFO /home/minhnhut/Documents/EdgeNPU/verification/uvm/agents/axil_agent/axil_driver.sv(140) @ 2185000: uvm_test_top.env.axil_agt.driver [AXIL_DRV] Read: addr=0x00000004, data=0x00000011
# UVM_INFO /home/minhnhut/Documents/EdgeNPU/verification/uvm/sequences/npu_base_seq.sv(46) @ 2185000: uvm_test_top.env.axil_agt.sequencer@@seq_0 [NPU_SEQ] Read: addr=0x00000004, data=0x00000011
# UVM_INFO /home/minhnhut/Documents/EdgeNPU/verification/uvm/agents/axil_agent/axil_driver.sv(140) @ 2235000: uvm_test_top.env.axil_agt.driver [AXIL_DRV] Read: addr=0x00000004, data=0x00000011
# UVM_INFO /home/minhnhut/Documents/EdgeNPU/verification/uvm/sequences/npu_base_seq.sv(46) @ 2235000: uvm_test_top.env.axil_agt.sequencer@@seq_0 [NPU_SEQ] Read: addr=0x00000004, data=0x00000011
# UVM_INFO /home/minhnhut/Documents/EdgeNPU/verification/uvm/agents/axil_agent/axil_driver.sv(140) @ 2285000: uvm_test_top.env.axil_agt.driver [AXIL_DRV] Read: addr=0x00000004, data=0x00000011
# UVM_INFO /home/minhnhut/Documents/EdgeNPU/verification/uvm/sequences/npu_base_seq.sv(46) @ 2285000: uvm_test_top.env.axil_agt.sequencer@@seq_0 [NPU_SEQ] Read: addr=0x00000004, data=0x00000011
# UVM_INFO /home/minhnhut/Documents/EdgeNPU/verification/uvm/agents/axil_agent/axil_driver.sv(140) @ 2335000: uvm_test_top.env.axil_agt.driver [AXIL_DRV] Read: addr=0x00000004, data=0x00000011
# UVM_INFO /home/minhnhut/Documents/EdgeNPU/verification/uvm/sequences/npu_base_seq.sv(46) @ 2335000: uvm_test_top.env.axil_agt.sequencer@@seq_0 [NPU_SEQ] Read: addr=0x00000004, data=0x00000011
# UVM_INFO /home/minhnhut/Documents/EdgeNPU/verification/uvm/agents/axil_agent/axil_driver.sv(140) @ 2385000: uvm_test_top.env.axil_agt.driver [AXIL_DRV] Read: addr=0x00000004, data=0x00000011
# UVM_INFO /home/minhnhut/Documents/EdgeNPU/verification/uvm/sequences/npu_base_seq.sv(46) @ 2385000: uvm_test_top.env.axil_agt.sequencer@@seq_0 [NPU_SEQ] Read: addr=0x00000004, data=0x00000011
# UVM_INFO /home/minhnhut/Documents/EdgeNPU/verification/uvm/agents/axil_agent/axil_driver.sv(140) @ 2435000: uvm_test_top.env.axil_agt.driver [AXIL_DRV] Read: addr=0x00000004, data=0x00000011
# UVM_INFO /home/minhnhut/Documents/EdgeNPU/verification/uvm/sequences/npu_base_seq.sv(46) @ 2435000: uvm_test_top.env.axil_agt.sequencer@@seq_0 [NPU_SEQ] Read: addr=0x00000004, data=0x00000011
# UVM_INFO /home/minhnhut/Documents/EdgeNPU/verification/uvm/agents/axil_agent/axil_driver.sv(140) @ 2485000: uvm_test_top.env.axil_agt.driver [AXIL_DRV] Read: addr=0x00000004, data=0x00000011
# UVM_INFO /home/minhnhut/Documents/EdgeNPU/verification/uvm/sequences/npu_base_seq.sv(46) @ 2485000: uvm_test_top.env.axil_agt.sequencer@@seq_0 [NPU_SEQ] Read: addr=0x00000004, data=0x00000011
# UVM_INFO /home/minhnhut/Documents/EdgeNPU/verification/uvm/agents/axil_agent/axil_driver.sv(140) @ 2535000: uvm_test_top.env.axil_agt.driver [AXIL_DRV] Read: addr=0x00000004, data=0x00000011
# UVM_INFO /home/minhnhut/Documents/EdgeNPU/verification/uvm/sequences/npu_base_seq.sv(46) @ 2535000: uvm_test_top.env.axil_agt.sequencer@@seq_0 [NPU_SEQ] Read: addr=0x00000004, data=0x00000011
# UVM_INFO /home/minhnhut/Documents/EdgeNPU/verification/uvm/agents/axil_agent/axil_driver.sv(140) @ 2585000: uvm_test_top.env.axil_agt.driver [AXIL_DRV] Read: addr=0x00000004, data=0x00000011
# UVM_INFO /home/minhnhut/Documents/EdgeNPU/verification/uvm/sequences/npu_base_seq.sv(46) @ 2585000: uvm_test_top.env.axil_agt.sequencer@@seq_0 [NPU_SEQ] Read: addr=0x00000004, data=0x00000011
# UVM_INFO /home/minhnhut/Documents/EdgeNPU/verification/uvm/agents/axil_agent/axil_driver.sv(140) @ 2635000: uvm_test_top.env.axil_agt.driver [AXIL_DRV] Read: addr=0x00000004, data=0x00000011
# UVM_INFO /home/minhnhut/Documents/EdgeNPU/verification/uvm/sequences/npu_base_seq.sv(46) @ 2635000: uvm_test_top.env.axil_agt.sequencer@@seq_0 [NPU_SEQ] Read: addr=0x00000004, data=0x00000011
# UVM_INFO /home/minhnhut/Documents/EdgeNPU/verification/uvm/agents/axil_agent/axil_driver.sv(140) @ 2685000: uvm_test_top.env.axil_agt.driver [AXIL_DRV] Read: addr=0x00000004, data=0x00000011
# UVM_INFO /home/minhnhut/Documents/EdgeNPU/verification/uvm/sequences/npu_base_seq.sv(46) @ 2685000: uvm_test_top.env.axil_agt.sequencer@@seq_0 [NPU_SEQ] Read: addr=0x00000004, data=0x00000011
# UVM_INFO /home/minhnhut/Documents/EdgeNPU/verification/uvm/agents/axil_agent/axil_driver.sv(140) @ 2735000: uvm_test_top.env.axil_agt.driver [AXIL_DRV] Read: addr=0x00000004, data=0x00000011
# UVM_INFO /home/minhnhut/Documents/EdgeNPU/verification/uvm/sequences/npu_base_seq.sv(46) @ 2735000: uvm_test_top.env.axil_agt.sequencer@@seq_0 [NPU_SEQ] Read: addr=0x00000004, data=0x00000011
# UVM_INFO /home/minhnhut/Documents/EdgeNPU/verification/uvm/agents/axil_agent/axil_driver.sv(140) @ 2785000: uvm_test_top.env.axil_agt.driver [AXIL_DRV] Read: addr=0x00000004, data=0x00000011
# UVM_INFO /home/minhnhut/Documents/EdgeNPU/verification/uvm/sequences/npu_base_seq.sv(46) @ 2785000: uvm_test_top.env.axil_agt.sequencer@@seq_0 [NPU_SEQ] Read: addr=0x00000004, data=0x00000011
# UVM_INFO /home/minhnhut/Documents/EdgeNPU/verification/uvm/agents/axil_agent/axil_driver.sv(140) @ 2835000: uvm_test_top.env.axil_agt.driver [AXIL_DRV] Read: addr=0x00000004, data=0x00000011
# UVM_INFO /home/minhnhut/Documents/EdgeNPU/verification/uvm/sequences/npu_base_seq.sv(46) @ 2835000: uvm_test_top.env.axil_agt.sequencer@@seq_0 [NPU_SEQ] Read: addr=0x00000004, data=0x00000011
# UVM_INFO /home/minhnhut/Documents/EdgeNPU/verification/uvm/agents/axil_agent/axil_driver.sv(140) @ 2885000: uvm_test_top.env.axil_agt.driver [AXIL_DRV] Read: addr=0x00000004, data=0x00000011
# UVM_INFO /home/minhnhut/Documents/EdgeNPU/verification/uvm/sequences/npu_base_seq.sv(46) @ 2885000: uvm_test_top.env.axil_agt.sequencer@@seq_0 [NPU_SEQ] Read: addr=0x00000004, data=0x00000011
# UVM_INFO /home/minhnhut/Documents/EdgeNPU/verification/uvm/agents/axil_agent/axil_driver.sv(140) @ 2935000: uvm_test_top.env.axil_agt.driver [AXIL_DRV] Read: addr=0x00000004, data=0x00000011
# UVM_INFO /home/minhnhut/Documents/EdgeNPU/verification/uvm/sequences/npu_base_seq.sv(46) @ 2935000: uvm_test_top.env.axil_agt.sequencer@@seq_0 [NPU_SEQ] Read: addr=0x00000004, data=0x00000011
# UVM_INFO /home/minhnhut/Documents/EdgeNPU/verification/uvm/agents/axil_agent/axil_driver.sv(140) @ 2985000: uvm_test_top.env.axil_agt.driver [AXIL_DRV] Read: addr=0x00000004, data=0x00000011
# UVM_INFO /home/minhnhut/Documents/EdgeNPU/verification/uvm/sequences/npu_base_seq.sv(46) @ 2985000: uvm_test_top.env.axil_agt.sequencer@@seq_0 [NPU_SEQ] Read: addr=0x00000004, data=0x00000011
# UVM_INFO /home/minhnhut/Documents/EdgeNPU/verification/uvm/agents/axil_agent/axil_driver.sv(140) @ 3035000: uvm_test_top.env.axil_agt.driver [AXIL_DRV] Read: addr=0x00000004, data=0x00000011
# UVM_INFO /home/minhnhut/Documents/EdgeNPU/verification/uvm/sequences/npu_base_seq.sv(46) @ 3035000: uvm_test_top.env.axil_agt.sequencer@@seq_0 [NPU_SEQ] Read: addr=0x00000004, data=0x00000011
# UVM_INFO /home/minhnhut/Documents/EdgeNPU/verification/uvm/agents/axil_agent/axil_driver.sv(140) @ 3085000: uvm_test_top.env.axil_agt.driver [AXIL_DRV] Read: addr=0x00000004, data=0x00000011
# UVM_INFO /home/minhnhut/Documents/EdgeNPU/verification/uvm/sequences/npu_base_seq.sv(46) @ 3085000: uvm_test_top.env.axil_agt.sequencer@@seq_0 [NPU_SEQ] Read: addr=0x00000004, data=0x00000011
# UVM_INFO /home/minhnhut/Documents/EdgeNPU/verification/uvm/agents/axil_agent/axil_driver.sv(140) @ 3135000: uvm_test_top.env.axil_agt.driver [AXIL_DRV] Read: addr=0x00000004, data=0x00000011
# UVM_INFO /home/minhnhut/Documents/EdgeNPU/verification/uvm/sequences/npu_base_seq.sv(46) @ 3135000: uvm_test_top.env.axil_agt.sequencer@@seq_0 [NPU_SEQ] Read: addr=0x00000004, data=0x00000011
# UVM_INFO /home/minhnhut/Documents/EdgeNPU/verification/uvm/agents/axil_agent/axil_driver.sv(140) @ 3185000: uvm_test_top.env.axil_agt.driver [AXIL_DRV] Read: addr=0x00000004, data=0x00000011
# UVM_INFO /home/minhnhut/Documents/EdgeNPU/verification/uvm/sequences/npu_base_seq.sv(46) @ 3185000: uvm_test_top.env.axil_agt.sequencer@@seq_0 [NPU_SEQ] Read: addr=0x00000004, data=0x00000011
# UVM_INFO /home/minhnhut/Documents/EdgeNPU/verification/uvm/agents/axil_agent/axil_driver.sv(140) @ 3235000: uvm_test_top.env.axil_agt.driver [AXIL_DRV] Read: addr=0x00000004, data=0x00000011
# UVM_INFO /home/minhnhut/Documents/EdgeNPU/verification/uvm/sequences/npu_base_seq.sv(46) @ 3235000: uvm_test_top.env.axil_agt.sequencer@@seq_0 [NPU_SEQ] Read: addr=0x00000004, data=0x00000011
# UVM_INFO /home/minhnhut/Documents/EdgeNPU/verification/uvm/agents/axil_agent/axil_driver.sv(140) @ 3285000: uvm_test_top.env.axil_agt.driver [AXIL_DRV] Read: addr=0x00000004, data=0x00000011
# UVM_INFO /home/minhnhut/Documents/EdgeNPU/verification/uvm/sequences/npu_base_seq.sv(46) @ 3285000: uvm_test_top.env.axil_agt.sequencer@@seq_0 [NPU_SEQ] Read: addr=0x00000004, data=0x00000011
# UVM_INFO /home/minhnhut/Documents/EdgeNPU/verification/uvm/agents/axil_agent/axil_driver.sv(140) @ 3335000: uvm_test_top.env.axil_agt.driver [AXIL_DRV] Read: addr=0x00000004, data=0x00000011
# UVM_INFO /home/minhnhut/Documents/EdgeNPU/verification/uvm/sequences/npu_base_seq.sv(46) @ 3335000: uvm_test_top.env.axil_agt.sequencer@@seq_0 [NPU_SEQ] Read: addr=0x00000004, data=0x00000011
# UVM_INFO /home/minhnhut/Documents/EdgeNPU/verification/uvm/agents/axil_agent/axil_driver.sv(140) @ 3385000: uvm_test_top.env.axil_agt.driver [AXIL_DRV] Read: addr=0x00000004, data=0x00000011
# UVM_INFO /home/minhnhut/Documents/EdgeNPU/verification/uvm/sequences/npu_base_seq.sv(46) @ 3385000: uvm_test_top.env.axil_agt.sequencer@@seq_0 [NPU_SEQ] Read: addr=0x00000004, data=0x00000011
# UVM_INFO /home/minhnhut/Documents/EdgeNPU/verification/uvm/agents/axil_agent/axil_driver.sv(140) @ 3435000: uvm_test_top.env.axil_agt.driver [AXIL_DRV] Read: addr=0x00000004, data=0x00000011
# UVM_INFO /home/minhnhut/Documents/EdgeNPU/verification/uvm/sequences/npu_base_seq.sv(46) @ 3435000: uvm_test_top.env.axil_agt.sequencer@@seq_0 [NPU_SEQ] Read: addr=0x00000004, data=0x00000011
# UVM_INFO /home/minhnhut/Documents/EdgeNPU/verification/uvm/agents/axil_agent/axil_driver.sv(140) @ 3485000: uvm_test_top.env.axil_agt.driver [AXIL_DRV] Read: addr=0x00000004, data=0x00000011
# UVM_INFO /home/minhnhut/Documents/EdgeNPU/verification/uvm/sequences/npu_base_seq.sv(46) @ 3485000: uvm_test_top.env.axil_agt.sequencer@@seq_0 [NPU_SEQ] Read: addr=0x00000004, data=0x00000011
# UVM_INFO /home/minhnhut/Documents/EdgeNPU/verification/uvm/agents/axil_agent/axil_driver.sv(140) @ 3535000: uvm_test_top.env.axil_agt.driver [AXIL_DRV] Read: addr=0x00000004, data=0x00000011
# UVM_INFO /home/minhnhut/Documents/EdgeNPU/verification/uvm/sequences/npu_base_seq.sv(46) @ 3535000: uvm_test_top.env.axil_agt.sequencer@@seq_0 [NPU_SEQ] Read: addr=0x00000004, data=0x00000011
# UVM_INFO /home/minhnhut/Documents/EdgeNPU/verification/uvm/agents/axil_agent/axil_driver.sv(140) @ 3585000: uvm_test_top.env.axil_agt.driver [AXIL_DRV] Read: addr=0x00000004, data=0x00000011
# UVM_INFO /home/minhnhut/Documents/EdgeNPU/verification/uvm/sequences/npu_base_seq.sv(46) @ 3585000: uvm_test_top.env.axil_agt.sequencer@@seq_0 [NPU_SEQ] Read: addr=0x00000004, data=0x00000011
# UVM_INFO /home/minhnhut/Documents/EdgeNPU/verification/uvm/agents/axil_agent/axil_driver.sv(140) @ 3635000: uvm_test_top.env.axil_agt.driver [AXIL_DRV] Read: addr=0x00000004, data=0x00000011
# UVM_INFO /home/minhnhut/Documents/EdgeNPU/verification/uvm/sequences/npu_base_seq.sv(46) @ 3635000: uvm_test_top.env.axil_agt.sequencer@@seq_0 [NPU_SEQ] Read: addr=0x00000004, data=0x00000011
# UVM_INFO /home/minhnhut/Documents/EdgeNPU/verification/uvm/agents/axil_agent/axil_driver.sv(140) @ 3685000: uvm_test_top.env.axil_agt.driver [AXIL_DRV] Read: addr=0x00000004, data=0x00000011
# UVM_INFO /home/minhnhut/Documents/EdgeNPU/verification/uvm/sequences/npu_base_seq.sv(46) @ 3685000: uvm_test_top.env.axil_agt.sequencer@@seq_0 [NPU_SEQ] Read: addr=0x00000004, data=0x00000011
# UVM_INFO /home/minhnhut/Documents/EdgeNPU/verification/uvm/agents/axil_agent/axil_driver.sv(140) @ 3735000: uvm_test_top.env.axil_agt.driver [AXIL_DRV] Read: addr=0x00000004, data=0x00000011
# UVM_INFO /home/minhnhut/Documents/EdgeNPU/verification/uvm/sequences/npu_base_seq.sv(46) @ 3735000: uvm_test_top.env.axil_agt.sequencer@@seq_0 [NPU_SEQ] Read: addr=0x00000004, data=0x00000011
# UVM_INFO /home/minhnhut/Documents/EdgeNPU/verification/uvm/agents/axil_agent/axil_driver.sv(140) @ 3785000: uvm_test_top.env.axil_agt.driver [AXIL_DRV] Read: addr=0x00000004, data=0x00000011
# UVM_INFO /home/minhnhut/Documents/EdgeNPU/verification/uvm/sequences/npu_base_seq.sv(46) @ 3785000: uvm_test_top.env.axil_agt.sequencer@@seq_0 [NPU_SEQ] Read: addr=0x00000004, data=0x00000011
# UVM_INFO /home/minhnhut/Documents/EdgeNPU/verification/uvm/agents/axil_agent/axil_driver.sv(140) @ 3835000: uvm_test_top.env.axil_agt.driver [AXIL_DRV] Read: addr=0x00000004, data=0x00000011
# UVM_INFO /home/minhnhut/Documents/EdgeNPU/verification/uvm/sequences/npu_base_seq.sv(46) @ 3835000: uvm_test_top.env.axil_agt.sequencer@@seq_0 [NPU_SEQ] Read: addr=0x00000004, data=0x00000011
# UVM_INFO /home/minhnhut/Documents/EdgeNPU/verification/uvm/agents/axil_agent/axil_driver.sv(140) @ 3885000: uvm_test_top.env.axil_agt.driver [AXIL_DRV] Read: addr=0x00000004, data=0x00000011
# UVM_INFO /home/minhnhut/Documents/EdgeNPU/verification/uvm/sequences/npu_base_seq.sv(46) @ 3885000: uvm_test_top.env.axil_agt.sequencer@@seq_0 [NPU_SEQ] Read: addr=0x00000004, data=0x00000011
# UVM_INFO /home/minhnhut/Documents/EdgeNPU/verification/uvm/agents/axil_agent/axil_driver.sv(140) @ 3935000: uvm_test_top.env.axil_agt.driver [AXIL_DRV] Read: addr=0x00000004, data=0x00000011
# UVM_INFO /home/minhnhut/Documents/EdgeNPU/verification/uvm/sequences/npu_base_seq.sv(46) @ 3935000: uvm_test_top.env.axil_agt.sequencer@@seq_0 [NPU_SEQ] Read: addr=0x00000004, data=0x00000011
# UVM_INFO /home/minhnhut/Documents/EdgeNPU/verification/uvm/agents/axil_agent/axil_driver.sv(140) @ 3985000: uvm_test_top.env.axil_agt.driver [AXIL_DRV] Read: addr=0x00000004, data=0x00000011
# UVM_INFO /home/minhnhut/Documents/EdgeNPU/verification/uvm/sequences/npu_base_seq.sv(46) @ 3985000: uvm_test_top.env.axil_agt.sequencer@@seq_0 [NPU_SEQ] Read: addr=0x00000004, data=0x00000011
# UVM_INFO /home/minhnhut/Documents/EdgeNPU/verification/uvm/agents/axil_agent/axil_driver.sv(140) @ 4035000: uvm_test_top.env.axil_agt.driver [AXIL_DRV] Read: addr=0x00000004, data=0x00000011
# UVM_INFO /home/minhnhut/Documents/EdgeNPU/verification/uvm/sequences/npu_base_seq.sv(46) @ 4035000: uvm_test_top.env.axil_agt.sequencer@@seq_0 [NPU_SEQ] Read: addr=0x00000004, data=0x00000011
# UVM_INFO /home/minhnhut/Documents/EdgeNPU/verification/uvm/agents/axil_agent/axil_driver.sv(140) @ 4085000: uvm_test_top.env.axil_agt.driver [AXIL_DRV] Read: addr=0x00000004, data=0x00000011
# UVM_INFO /home/minhnhut/Documents/EdgeNPU/verification/uvm/sequences/npu_base_seq.sv(46) @ 4085000: uvm_test_top.env.axil_agt.sequencer@@seq_0 [NPU_SEQ] Read: addr=0x00000004, data=0x00000011
# UVM_INFO /home/minhnhut/Documents/EdgeNPU/verification/uvm/agents/axil_agent/axil_driver.sv(140) @ 4135000: uvm_test_top.env.axil_agt.driver [AXIL_DRV] Read: addr=0x00000004, data=0x00000011
# UVM_INFO /home/minhnhut/Documents/EdgeNPU/verification/uvm/sequences/npu_base_seq.sv(46) @ 4135000: uvm_test_top.env.axil_agt.sequencer@@seq_0 [NPU_SEQ] Read: addr=0x00000004, data=0x00000011
# UVM_INFO /home/minhnhut/Documents/EdgeNPU/verification/uvm/agents/axil_agent/axil_driver.sv(140) @ 4185000: uvm_test_top.env.axil_agt.driver [AXIL_DRV] Read: addr=0x00000004, data=0x00000011
# UVM_INFO /home/minhnhut/Documents/EdgeNPU/verification/uvm/sequences/npu_base_seq.sv(46) @ 4185000: uvm_test_top.env.axil_agt.sequencer@@seq_0 [NPU_SEQ] Read: addr=0x00000004, data=0x00000011
# UVM_INFO /home/minhnhut/Documents/EdgeNPU/verification/uvm/agents/axil_agent/axil_driver.sv(140) @ 4235000: uvm_test_top.env.axil_agt.driver [AXIL_DRV] Read: addr=0x00000004, data=0x00000011
# UVM_INFO /home/minhnhut/Documents/EdgeNPU/verification/uvm/sequences/npu_base_seq.sv(46) @ 4235000: uvm_test_top.env.axil_agt.sequencer@@seq_0 [NPU_SEQ] Read: addr=0x00000004, data=0x00000011
# UVM_INFO /home/minhnhut/Documents/EdgeNPU/verification/uvm/agents/axil_agent/axil_driver.sv(140) @ 4285000: uvm_test_top.env.axil_agt.driver [AXIL_DRV] Read: addr=0x00000004, data=0x00000011
# UVM_INFO /home/minhnhut/Documents/EdgeNPU/verification/uvm/sequences/npu_base_seq.sv(46) @ 4285000: uvm_test_top.env.axil_agt.sequencer@@seq_0 [NPU_SEQ] Read: addr=0x00000004, data=0x00000011
# UVM_INFO /home/minhnhut/Documents/EdgeNPU/verification/uvm/agents/axil_agent/axil_driver.sv(140) @ 4335000: uvm_test_top.env.axil_agt.driver [AXIL_DRV] Read: addr=0x00000004, data=0x00000011
# UVM_INFO /home/minhnhut/Documents/EdgeNPU/verification/uvm/sequences/npu_base_seq.sv(46) @ 4335000: uvm_test_top.env.axil_agt.sequencer@@seq_0 [NPU_SEQ] Read: addr=0x00000004, data=0x00000011
# UVM_INFO /home/minhnhut/Documents/EdgeNPU/verification/uvm/agents/axil_agent/axil_driver.sv(140) @ 4385000: uvm_test_top.env.axil_agt.driver [AXIL_DRV] Read: addr=0x00000004, data=0x00000011
# UVM_INFO /home/minhnhut/Documents/EdgeNPU/verification/uvm/sequences/npu_base_seq.sv(46) @ 4385000: uvm_test_top.env.axil_agt.sequencer@@seq_0 [NPU_SEQ] Read: addr=0x00000004, data=0x00000011
# UVM_INFO /home/minhnhut/Documents/EdgeNPU/verification/uvm/agents/axil_agent/axil_driver.sv(140) @ 4435000: uvm_test_top.env.axil_agt.driver [AXIL_DRV] Read: addr=0x00000004, data=0x00000011
# UVM_INFO /home/minhnhut/Documents/EdgeNPU/verification/uvm/sequences/npu_base_seq.sv(46) @ 4435000: uvm_test_top.env.axil_agt.sequencer@@seq_0 [NPU_SEQ] Read: addr=0x00000004, data=0x00000011
# UVM_INFO /home/minhnhut/Documents/EdgeNPU/verification/uvm/agents/axil_agent/axil_driver.sv(140) @ 4485000: uvm_test_top.env.axil_agt.driver [AXIL_DRV] Read: addr=0x00000004, data=0x00000011
# UVM_INFO /home/minhnhut/Documents/EdgeNPU/verification/uvm/sequences/npu_base_seq.sv(46) @ 4485000: uvm_test_top.env.axil_agt.sequencer@@seq_0 [NPU_SEQ] Read: addr=0x00000004, data=0x00000011
# UVM_INFO /home/minhnhut/Documents/EdgeNPU/verification/uvm/agents/axil_agent/axil_driver.sv(140) @ 4535000: uvm_test_top.env.axil_agt.driver [AXIL_DRV] Read: addr=0x00000004, data=0x00000011
# UVM_INFO /home/minhnhut/Documents/EdgeNPU/verification/uvm/sequences/npu_base_seq.sv(46) @ 4535000: uvm_test_top.env.axil_agt.sequencer@@seq_0 [NPU_SEQ] Read: addr=0x00000004, data=0x00000011
# UVM_INFO /home/minhnhut/Documents/EdgeNPU/verification/uvm/agents/axil_agent/axil_driver.sv(140) @ 4585000: uvm_test_top.env.axil_agt.driver [AXIL_DRV] Read: addr=0x00000004, data=0x00000011
# UVM_INFO /home/minhnhut/Documents/EdgeNPU/verification/uvm/sequences/npu_base_seq.sv(46) @ 4585000: uvm_test_top.env.axil_agt.sequencer@@seq_0 [NPU_SEQ] Read: addr=0x00000004, data=0x00000011
# UVM_INFO /home/minhnhut/Documents/EdgeNPU/verification/uvm/agents/axil_agent/axil_driver.sv(140) @ 4635000: uvm_test_top.env.axil_agt.driver [AXIL_DRV] Read: addr=0x00000004, data=0x00000011
# UVM_INFO /home/minhnhut/Documents/EdgeNPU/verification/uvm/sequences/npu_base_seq.sv(46) @ 4635000: uvm_test_top.env.axil_agt.sequencer@@seq_0 [NPU_SEQ] Read: addr=0x00000004, data=0x00000011
# UVM_INFO /home/minhnhut/Documents/EdgeNPU/verification/uvm/agents/axil_agent/axil_driver.sv(140) @ 4685000: uvm_test_top.env.axil_agt.driver [AXIL_DRV] Read: addr=0x00000004, data=0x00000011
# UVM_INFO /home/minhnhut/Documents/EdgeNPU/verification/uvm/sequences/npu_base_seq.sv(46) @ 4685000: uvm_test_top.env.axil_agt.sequencer@@seq_0 [NPU_SEQ] Read: addr=0x00000004, data=0x00000011
# UVM_INFO /home/minhnhut/Documents/EdgeNPU/verification/uvm/agents/axil_agent/axil_driver.sv(140) @ 4735000: uvm_test_top.env.axil_agt.driver [AXIL_DRV] Read: addr=0x00000004, data=0x00000011
# UVM_INFO /home/minhnhut/Documents/EdgeNPU/verification/uvm/sequences/npu_base_seq.sv(46) @ 4735000: uvm_test_top.env.axil_agt.sequencer@@seq_0 [NPU_SEQ] Read: addr=0x00000004, data=0x00000011
# UVM_INFO /home/minhnhut/Documents/EdgeNPU/verification/uvm/agents/axil_agent/axil_driver.sv(140) @ 4785000: uvm_test_top.env.axil_agt.driver [AXIL_DRV] Read: addr=0x00000004, data=0x00000011
# UVM_INFO /home/minhnhut/Documents/EdgeNPU/verification/uvm/sequences/npu_base_seq.sv(46) @ 4785000: uvm_test_top.env.axil_agt.sequencer@@seq_0 [NPU_SEQ] Read: addr=0x00000004, data=0x00000011
# UVM_INFO /home/minhnhut/Documents/EdgeNPU/verification/uvm/agents/axil_agent/axil_driver.sv(140) @ 4835000: uvm_test_top.env.axil_agt.driver [AXIL_DRV] Read: addr=0x00000004, data=0x00000011
# UVM_INFO /home/minhnhut/Documents/EdgeNPU/verification/uvm/sequences/npu_base_seq.sv(46) @ 4835000: uvm_test_top.env.axil_agt.sequencer@@seq_0 [NPU_SEQ] Read: addr=0x00000004, data=0x00000011
# UVM_INFO /home/minhnhut/Documents/EdgeNPU/verification/uvm/agents/axil_agent/axil_driver.sv(140) @ 4885000: uvm_test_top.env.axil_agt.driver [AXIL_DRV] Read: addr=0x00000004, data=0x00000011
# UVM_INFO /home/minhnhut/Documents/EdgeNPU/verification/uvm/sequences/npu_base_seq.sv(46) @ 4885000: uvm_test_top.env.axil_agt.sequencer@@seq_0 [NPU_SEQ] Read: addr=0x00000004, data=0x00000011
# UVM_INFO /home/minhnhut/Documents/EdgeNPU/verification/uvm/agents/axil_agent/axil_driver.sv(140) @ 4935000: uvm_test_top.env.axil_agt.driver [AXIL_DRV] Read: addr=0x00000004, data=0x00000011
# UVM_INFO /home/minhnhut/Documents/EdgeNPU/verification/uvm/sequences/npu_base_seq.sv(46) @ 4935000: uvm_test_top.env.axil_agt.sequencer@@seq_0 [NPU_SEQ] Read: addr=0x00000004, data=0x00000011
# UVM_INFO /home/minhnhut/Documents/EdgeNPU/verification/uvm/agents/axil_agent/axil_driver.sv(140) @ 4985000: uvm_test_top.env.axil_agt.driver [AXIL_DRV] Read: addr=0x00000004, data=0x00000011
# UVM_INFO /home/minhnhut/Documents/EdgeNPU/verification/uvm/sequences/npu_base_seq.sv(46) @ 4985000: uvm_test_top.env.axil_agt.sequencer@@seq_0 [NPU_SEQ] Read: addr=0x00000004, data=0x00000011
# UVM_INFO /home/minhnhut/Documents/EdgeNPU/verification/uvm/agents/axil_agent/axil_driver.sv(140) @ 5035000: uvm_test_top.env.axil_agt.driver [AXIL_DRV] Read: addr=0x00000004, data=0x00000011
# UVM_INFO /home/minhnhut/Documents/EdgeNPU/verification/uvm/sequences/npu_base_seq.sv(46) @ 5035000: uvm_test_top.env.axil_agt.sequencer@@seq_0 [NPU_SEQ] Read: addr=0x00000004, data=0x00000011
# UVM_INFO /home/minhnhut/Documents/EdgeNPU/verification/uvm/agents/axil_agent/axil_driver.sv(140) @ 5085000: uvm_test_top.env.axil_agt.driver [AXIL_DRV] Read: addr=0x00000004, data=0x00000011
# UVM_INFO /home/minhnhut/Documents/EdgeNPU/verification/uvm/sequences/npu_base_seq.sv(46) @ 5085000: uvm_test_top.env.axil_agt.sequencer@@seq_0 [NPU_SEQ] Read: addr=0x00000004, data=0x00000011
# UVM_INFO /home/minhnhut/Documents/EdgeNPU/verification/uvm/agents/axil_agent/axil_driver.sv(140) @ 5135000: uvm_test_top.env.axil_agt.driver [AXIL_DRV] Read: addr=0x00000004, data=0x00000011
# UVM_INFO /home/minhnhut/Documents/EdgeNPU/verification/uvm/sequences/npu_base_seq.sv(46) @ 5135000: uvm_test_top.env.axil_agt.sequencer@@seq_0 [NPU_SEQ] Read: addr=0x00000004, data=0x00000011
# UVM_INFO /home/minhnhut/Documents/EdgeNPU/verification/uvm/agents/axil_agent/axil_driver.sv(140) @ 5185000: uvm_test_top.env.axil_agt.driver [AXIL_DRV] Read: addr=0x00000004, data=0x00000011
# UVM_INFO /home/minhnhut/Documents/EdgeNPU/verification/uvm/sequences/npu_base_seq.sv(46) @ 5185000: uvm_test_top.env.axil_agt.sequencer@@seq_0 [NPU_SEQ] Read: addr=0x00000004, data=0x00000011
# UVM_INFO /home/minhnhut/Documents/EdgeNPU/verification/uvm/agents/axil_agent/axil_driver.sv(140) @ 5235000: uvm_test_top.env.axil_agt.driver [AXIL_DRV] Read: addr=0x00000004, data=0x00000011
# UVM_INFO /home/minhnhut/Documents/EdgeNPU/verification/uvm/sequences/npu_base_seq.sv(46) @ 5235000: uvm_test_top.env.axil_agt.sequencer@@seq_0 [NPU_SEQ] Read: addr=0x00000004, data=0x00000011
# UVM_INFO /home/minhnhut/Documents/EdgeNPU/verification/uvm/agents/axil_agent/axil_driver.sv(140) @ 5285000: uvm_test_top.env.axil_agt.driver [AXIL_DRV] Read: addr=0x00000004, data=0x00000011
# UVM_INFO /home/minhnhut/Documents/EdgeNPU/verification/uvm/sequences/npu_base_seq.sv(46) @ 5285000: uvm_test_top.env.axil_agt.sequencer@@seq_0 [NPU_SEQ] Read: addr=0x00000004, data=0x00000011
# UVM_INFO /home/minhnhut/Documents/EdgeNPU/verification/uvm/agents/axil_agent/axil_driver.sv(140) @ 5335000: uvm_test_top.env.axil_agt.driver [AXIL_DRV] Read: addr=0x00000004, data=0x00000011
# UVM_INFO /home/minhnhut/Documents/EdgeNPU/verification/uvm/sequences/npu_base_seq.sv(46) @ 5335000: uvm_test_top.env.axil_agt.sequencer@@seq_0 [NPU_SEQ] Read: addr=0x00000004, data=0x00000011
# UVM_INFO /home/minhnhut/Documents/EdgeNPU/verification/uvm/agents/axil_agent/axil_driver.sv(140) @ 5385000: uvm_test_top.env.axil_agt.driver [AXIL_DRV] Read: addr=0x00000004, data=0x00000011
# UVM_INFO /home/minhnhut/Documents/EdgeNPU/verification/uvm/sequences/npu_base_seq.sv(46) @ 5385000: uvm_test_top.env.axil_agt.sequencer@@seq_0 [NPU_SEQ] Read: addr=0x00000004, data=0x00000011
# UVM_INFO /home/minhnhut/Documents/EdgeNPU/verification/uvm/agents/axil_agent/axil_driver.sv(140) @ 5435000: uvm_test_top.env.axil_agt.driver [AXIL_DRV] Read: addr=0x00000004, data=0x00000011
# UVM_INFO /home/minhnhut/Documents/EdgeNPU/verification/uvm/sequences/npu_base_seq.sv(46) @ 5435000: uvm_test_top.env.axil_agt.sequencer@@seq_0 [NPU_SEQ] Read: addr=0x00000004, data=0x00000011
# UVM_INFO /home/minhnhut/Documents/EdgeNPU/verification/uvm/agents/axil_agent/axil_driver.sv(140) @ 5485000: uvm_test_top.env.axil_agt.driver [AXIL_DRV] Read: addr=0x00000004, data=0x00000011
# UVM_INFO /home/minhnhut/Documents/EdgeNPU/verification/uvm/sequences/npu_base_seq.sv(46) @ 5485000: uvm_test_top.env.axil_agt.sequencer@@seq_0 [NPU_SEQ] Read: addr=0x00000004, data=0x00000011
# UVM_INFO /home/minhnhut/Documents/EdgeNPU/verification/uvm/agents/axil_agent/axil_driver.sv(140) @ 5535000: uvm_test_top.env.axil_agt.driver [AXIL_DRV] Read: addr=0x00000004, data=0x00000011
# UVM_INFO /home/minhnhut/Documents/EdgeNPU/verification/uvm/sequences/npu_base_seq.sv(46) @ 5535000: uvm_test_top.env.axil_agt.sequencer@@seq_0 [NPU_SEQ] Read: addr=0x00000004, data=0x00000011
# UVM_INFO /home/minhnhut/Documents/EdgeNPU/verification/uvm/agents/axil_agent/axil_driver.sv(140) @ 5585000: uvm_test_top.env.axil_agt.driver [AXIL_DRV] Read: addr=0x00000004, data=0x00000011
# UVM_INFO /home/minhnhut/Documents/EdgeNPU/verification/uvm/sequences/npu_base_seq.sv(46) @ 5585000: uvm_test_top.env.axil_agt.sequencer@@seq_0 [NPU_SEQ] Read: addr=0x00000004, data=0x00000011
# UVM_INFO /home/minhnhut/Documents/EdgeNPU/verification/uvm/agents/axil_agent/axil_driver.sv(140) @ 5635000: uvm_test_top.env.axil_agt.driver [AXIL_DRV] Read: addr=0x00000004, data=0x00000011
# UVM_INFO /home/minhnhut/Documents/EdgeNPU/verification/uvm/sequences/npu_base_seq.sv(46) @ 5635000: uvm_test_top.env.axil_agt.sequencer@@seq_0 [NPU_SEQ] Read: addr=0x00000004, data=0x00000011
# UVM_INFO /home/minhnhut/Documents/EdgeNPU/verification/uvm/agents/axil_agent/axil_driver.sv(140) @ 5685000: uvm_test_top.env.axil_agt.driver [AXIL_DRV] Read: addr=0x00000004, data=0x00000011
# UVM_INFO /home/minhnhut/Documents/EdgeNPU/verification/uvm/sequences/npu_base_seq.sv(46) @ 5685000: uvm_test_top.env.axil_agt.sequencer@@seq_0 [NPU_SEQ] Read: addr=0x00000004, data=0x00000011
# UVM_INFO /home/minhnhut/Documents/EdgeNPU/verification/uvm/agents/axil_agent/axil_driver.sv(140) @ 5735000: uvm_test_top.env.axil_agt.driver [AXIL_DRV] Read: addr=0x00000004, data=0x00000011
# UVM_INFO /home/minhnhut/Documents/EdgeNPU/verification/uvm/sequences/npu_base_seq.sv(46) @ 5735000: uvm_test_top.env.axil_agt.sequencer@@seq_0 [NPU_SEQ] Read: addr=0x00000004, data=0x00000011
# UVM_INFO /home/minhnhut/Documents/EdgeNPU/verification/uvm/agents/axil_agent/axil_driver.sv(140) @ 5785000: uvm_test_top.env.axil_agt.driver [AXIL_DRV] Read: addr=0x00000004, data=0x00000011
# UVM_INFO /home/minhnhut/Documents/EdgeNPU/verification/uvm/sequences/npu_base_seq.sv(46) @ 5785000: uvm_test_top.env.axil_agt.sequencer@@seq_0 [NPU_SEQ] Read: addr=0x00000004, data=0x00000011
# UVM_INFO /home/minhnhut/Documents/EdgeNPU/verification/uvm/agents/axil_agent/axil_driver.sv(140) @ 5835000: uvm_test_top.env.axil_agt.driver [AXIL_DRV] Read: addr=0x00000004, data=0x00000011
# UVM_INFO /home/minhnhut/Documents/EdgeNPU/verification/uvm/sequences/npu_base_seq.sv(46) @ 5835000: uvm_test_top.env.axil_agt.sequencer@@seq_0 [NPU_SEQ] Read: addr=0x00000004, data=0x00000011
# UVM_INFO /home/minhnhut/Documents/EdgeNPU/verification/uvm/agents/axil_agent/axil_driver.sv(140) @ 5885000: uvm_test_top.env.axil_agt.driver [AXIL_DRV] Read: addr=0x00000004, data=0x00000011
# UVM_INFO /home/minhnhut/Documents/EdgeNPU/verification/uvm/sequences/npu_base_seq.sv(46) @ 5885000: uvm_test_top.env.axil_agt.sequencer@@seq_0 [NPU_SEQ] Read: addr=0x00000004, data=0x00000011
# UVM_INFO /home/minhnhut/Documents/EdgeNPU/verification/uvm/agents/axil_agent/axil_driver.sv(140) @ 5935000: uvm_test_top.env.axil_agt.driver [AXIL_DRV] Read: addr=0x00000004, data=0x00000011
# UVM_INFO /home/minhnhut/Documents/EdgeNPU/verification/uvm/sequences/npu_base_seq.sv(46) @ 5935000: uvm_test_top.env.axil_agt.sequencer@@seq_0 [NPU_SEQ] Read: addr=0x00000004, data=0x00000011
# UVM_INFO /home/minhnhut/Documents/EdgeNPU/verification/uvm/agents/axil_agent/axil_driver.sv(140) @ 5985000: uvm_test_top.env.axil_agt.driver [AXIL_DRV] Read: addr=0x00000004, data=0x00000011
# UVM_INFO /home/minhnhut/Documents/EdgeNPU/verification/uvm/sequences/npu_base_seq.sv(46) @ 5985000: uvm_test_top.env.axil_agt.sequencer@@seq_0 [NPU_SEQ] Read: addr=0x00000004, data=0x00000011
# UVM_INFO /home/minhnhut/Documents/EdgeNPU/verification/uvm/agents/axil_agent/axil_driver.sv(140) @ 6035000: uvm_test_top.env.axil_agt.driver [AXIL_DRV] Read: addr=0x00000004, data=0x00000011
# UVM_INFO /home/minhnhut/Documents/EdgeNPU/verification/uvm/sequences/npu_base_seq.sv(46) @ 6035000: uvm_test_top.env.axil_agt.sequencer@@seq_0 [NPU_SEQ] Read: addr=0x00000004, data=0x00000011
# UVM_INFO /home/minhnhut/Documents/EdgeNPU/verification/uvm/agents/axil_agent/axil_driver.sv(140) @ 6085000: uvm_test_top.env.axil_agt.driver [AXIL_DRV] Read: addr=0x00000004, data=0x00000011
# UVM_INFO /home/minhnhut/Documents/EdgeNPU/verification/uvm/sequences/npu_base_seq.sv(46) @ 6085000: uvm_test_top.env.axil_agt.sequencer@@seq_0 [NPU_SEQ] Read: addr=0x00000004, data=0x00000011
# UVM_INFO /home/minhnhut/Documents/EdgeNPU/verification/uvm/agents/axil_agent/axil_driver.sv(140) @ 6135000: uvm_test_top.env.axil_agt.driver [AXIL_DRV] Read: addr=0x00000004, data=0x00000011
# UVM_INFO /home/minhnhut/Documents/EdgeNPU/verification/uvm/sequences/npu_base_seq.sv(46) @ 6135000: uvm_test_top.env.axil_agt.sequencer@@seq_0 [NPU_SEQ] Read: addr=0x00000004, data=0x00000011
# UVM_INFO /home/minhnhut/Documents/EdgeNPU/verification/uvm/agents/axil_agent/axil_driver.sv(140) @ 6185000: uvm_test_top.env.axil_agt.driver [AXIL_DRV] Read: addr=0x00000004, data=0x00000011
# UVM_INFO /home/minhnhut/Documents/EdgeNPU/verification/uvm/sequences/npu_base_seq.sv(46) @ 6185000: uvm_test_top.env.axil_agt.sequencer@@seq_0 [NPU_SEQ] Read: addr=0x00000004, data=0x00000011
# UVM_INFO /home/minhnhut/Documents/EdgeNPU/verification/uvm/agents/axil_agent/axil_driver.sv(140) @ 6235000: uvm_test_top.env.axil_agt.driver [AXIL_DRV] Read: addr=0x00000004, data=0x00000011
# UVM_INFO /home/minhnhut/Documents/EdgeNPU/verification/uvm/sequences/npu_base_seq.sv(46) @ 6235000: uvm_test_top.env.axil_agt.sequencer@@seq_0 [NPU_SEQ] Read: addr=0x00000004, data=0x00000011
# UVM_INFO /home/minhnhut/Documents/EdgeNPU/verification/uvm/agents/axil_agent/axil_driver.sv(140) @ 6285000: uvm_test_top.env.axil_agt.driver [AXIL_DRV] Read: addr=0x00000004, data=0x00000011
# UVM_INFO /home/minhnhut/Documents/EdgeNPU/verification/uvm/sequences/npu_base_seq.sv(46) @ 6285000: uvm_test_top.env.axil_agt.sequencer@@seq_0 [NPU_SEQ] Read: addr=0x00000004, data=0x00000011
# UVM_INFO /home/minhnhut/Documents/EdgeNPU/verification/uvm/agents/axil_agent/axil_driver.sv(140) @ 6335000: uvm_test_top.env.axil_agt.driver [AXIL_DRV] Read: addr=0x00000004, data=0x00000011
# UVM_INFO /home/minhnhut/Documents/EdgeNPU/verification/uvm/sequences/npu_base_seq.sv(46) @ 6335000: uvm_test_top.env.axil_agt.sequencer@@seq_0 [NPU_SEQ] Read: addr=0x00000004, data=0x00000011
# UVM_INFO /home/minhnhut/Documents/EdgeNPU/verification/uvm/agents/axil_agent/axil_driver.sv(140) @ 6385000: uvm_test_top.env.axil_agt.driver [AXIL_DRV] Read: addr=0x00000004, data=0x00000011
# UVM_INFO /home/minhnhut/Documents/EdgeNPU/verification/uvm/sequences/npu_base_seq.sv(46) @ 6385000: uvm_test_top.env.axil_agt.sequencer@@seq_0 [NPU_SEQ] Read: addr=0x00000004, data=0x00000011
# UVM_INFO /home/minhnhut/Documents/EdgeNPU/verification/uvm/agents/axil_agent/axil_driver.sv(140) @ 6435000: uvm_test_top.env.axil_agt.driver [AXIL_DRV] Read: addr=0x00000004, data=0x00000011
# UVM_INFO /home/minhnhut/Documents/EdgeNPU/verification/uvm/sequences/npu_base_seq.sv(46) @ 6435000: uvm_test_top.env.axil_agt.sequencer@@seq_0 [NPU_SEQ] Read: addr=0x00000004, data=0x00000011
# UVM_INFO /home/minhnhut/Documents/EdgeNPU/verification/uvm/agents/axil_agent/axil_driver.sv(140) @ 6485000: uvm_test_top.env.axil_agt.driver [AXIL_DRV] Read: addr=0x00000004, data=0x00000011
# UVM_INFO /home/minhnhut/Documents/EdgeNPU/verification/uvm/sequences/npu_base_seq.sv(46) @ 6485000: uvm_test_top.env.axil_agt.sequencer@@seq_0 [NPU_SEQ] Read: addr=0x00000004, data=0x00000011
# UVM_INFO /home/minhnhut/Documents/EdgeNPU/verification/uvm/agents/axil_agent/axil_driver.sv(140) @ 6535000: uvm_test_top.env.axil_agt.driver [AXIL_DRV] Read: addr=0x00000004, data=0x00000011
# UVM_INFO /home/minhnhut/Documents/EdgeNPU/verification/uvm/sequences/npu_base_seq.sv(46) @ 6535000: uvm_test_top.env.axil_agt.sequencer@@seq_0 [NPU_SEQ] Read: addr=0x00000004, data=0x00000011
# UVM_INFO /home/minhnhut/Documents/EdgeNPU/verification/uvm/agents/axil_agent/axil_driver.sv(140) @ 6585000: uvm_test_top.env.axil_agt.driver [AXIL_DRV] Read: addr=0x00000004, data=0x00000011
# UVM_INFO /home/minhnhut/Documents/EdgeNPU/verification/uvm/sequences/npu_base_seq.sv(46) @ 6585000: uvm_test_top.env.axil_agt.sequencer@@seq_0 [NPU_SEQ] Read: addr=0x00000004, data=0x00000011
# UVM_INFO /home/minhnhut/Documents/EdgeNPU/verification/uvm/agents/axil_agent/axil_driver.sv(140) @ 6635000: uvm_test_top.env.axil_agt.driver [AXIL_DRV] Read: addr=0x00000004, data=0x00000011
# UVM_INFO /home/minhnhut/Documents/EdgeNPU/verification/uvm/sequences/npu_base_seq.sv(46) @ 6635000: uvm_test_top.env.axil_agt.sequencer@@seq_0 [NPU_SEQ] Read: addr=0x00000004, data=0x00000011
# UVM_INFO /home/minhnhut/Documents/EdgeNPU/verification/uvm/agents/axil_agent/axil_driver.sv(140) @ 6685000: uvm_test_top.env.axil_agt.driver [AXIL_DRV] Read: addr=0x00000004, data=0x00000011
# UVM_INFO /home/minhnhut/Documents/EdgeNPU/verification/uvm/sequences/npu_base_seq.sv(46) @ 6685000: uvm_test_top.env.axil_agt.sequencer@@seq_0 [NPU_SEQ] Read: addr=0x00000004, data=0x00000011
# UVM_INFO /home/minhnhut/Documents/EdgeNPU/verification/uvm/agents/axil_agent/axil_driver.sv(140) @ 6735000: uvm_test_top.env.axil_agt.driver [AXIL_DRV] Read: addr=0x00000004, data=0x00000011
# UVM_INFO /home/minhnhut/Documents/EdgeNPU/verification/uvm/sequences/npu_base_seq.sv(46) @ 6735000: uvm_test_top.env.axil_agt.sequencer@@seq_0 [NPU_SEQ] Read: addr=0x00000004, data=0x00000011
# UVM_INFO /home/minhnhut/Documents/EdgeNPU/verification/uvm/agents/axil_agent/axil_driver.sv(140) @ 6785000: uvm_test_top.env.axil_agt.driver [AXIL_DRV] Read: addr=0x00000004, data=0x00000011
# UVM_INFO /home/minhnhut/Documents/EdgeNPU/verification/uvm/sequences/npu_base_seq.sv(46) @ 6785000: uvm_test_top.env.axil_agt.sequencer@@seq_0 [NPU_SEQ] Read: addr=0x00000004, data=0x00000011
# UVM_INFO /home/minhnhut/Documents/EdgeNPU/verification/uvm/agents/axil_agent/axil_driver.sv(140) @ 6835000: uvm_test_top.env.axil_agt.driver [AXIL_DRV] Read: addr=0x00000004, data=0x00000011
# UVM_INFO /home/minhnhut/Documents/EdgeNPU/verification/uvm/sequences/npu_base_seq.sv(46) @ 6835000: uvm_test_top.env.axil_agt.sequencer@@seq_0 [NPU_SEQ] Read: addr=0x00000004, data=0x00000011
# UVM_INFO /home/minhnhut/Documents/EdgeNPU/verification/uvm/agents/axil_agent/axil_driver.sv(140) @ 6885000: uvm_test_top.env.axil_agt.driver [AXIL_DRV] Read: addr=0x00000004, data=0x00000011
# UVM_INFO /home/minhnhut/Documents/EdgeNPU/verification/uvm/sequences/npu_base_seq.sv(46) @ 6885000: uvm_test_top.env.axil_agt.sequencer@@seq_0 [NPU_SEQ] Read: addr=0x00000004, data=0x00000011
# UVM_INFO /home/minhnhut/Documents/EdgeNPU/verification/uvm/agents/axil_agent/axil_driver.sv(140) @ 6935000: uvm_test_top.env.axil_agt.driver [AXIL_DRV] Read: addr=0x00000004, data=0x00000011
# UVM_INFO /home/minhnhut/Documents/EdgeNPU/verification/uvm/sequences/npu_base_seq.sv(46) @ 6935000: uvm_test_top.env.axil_agt.sequencer@@seq_0 [NPU_SEQ] Read: addr=0x00000004, data=0x00000011
# UVM_INFO /home/minhnhut/Documents/EdgeNPU/verification/uvm/agents/axil_agent/axil_driver.sv(140) @ 6985000: uvm_test_top.env.axil_agt.driver [AXIL_DRV] Read: addr=0x00000004, data=0x00000011
# UVM_INFO /home/minhnhut/Documents/EdgeNPU/verification/uvm/sequences/npu_base_seq.sv(46) @ 6985000: uvm_test_top.env.axil_agt.sequencer@@seq_0 [NPU_SEQ] Read: addr=0x00000004, data=0x00000011
# UVM_INFO /home/minhnhut/Documents/EdgeNPU/verification/uvm/agents/axil_agent/axil_driver.sv(140) @ 7035000: uvm_test_top.env.axil_agt.driver [AXIL_DRV] Read: addr=0x00000004, data=0x00000011
# UVM_INFO /home/minhnhut/Documents/EdgeNPU/verification/uvm/sequences/npu_base_seq.sv(46) @ 7035000: uvm_test_top.env.axil_agt.sequencer@@seq_0 [NPU_SEQ] Read: addr=0x00000004, data=0x00000011
# UVM_INFO /home/minhnhut/Documents/EdgeNPU/verification/uvm/agents/axil_agent/axil_driver.sv(140) @ 7085000: uvm_test_top.env.axil_agt.driver [AXIL_DRV] Read: addr=0x00000004, data=0x00000011
# UVM_INFO /home/minhnhut/Documents/EdgeNPU/verification/uvm/sequences/npu_base_seq.sv(46) @ 7085000: uvm_test_top.env.axil_agt.sequencer@@seq_0 [NPU_SEQ] Read: addr=0x00000004, data=0x00000011
# UVM_INFO /home/minhnhut/Documents/EdgeNPU/verification/uvm/agents/axil_agent/axil_driver.sv(140) @ 7135000: uvm_test_top.env.axil_agt.driver [AXIL_DRV] Read: addr=0x00000004, data=0x00000011
# UVM_INFO /home/minhnhut/Documents/EdgeNPU/verification/uvm/sequences/npu_base_seq.sv(46) @ 7135000: uvm_test_top.env.axil_agt.sequencer@@seq_0 [NPU_SEQ] Read: addr=0x00000004, data=0x00000011
# UVM_INFO /home/minhnhut/Documents/EdgeNPU/verification/uvm/agents/axil_agent/axil_driver.sv(140) @ 7185000: uvm_test_top.env.axil_agt.driver [AXIL_DRV] Read: addr=0x00000004, data=0x00000011
# UVM_INFO /home/minhnhut/Documents/EdgeNPU/verification/uvm/sequences/npu_base_seq.sv(46) @ 7185000: uvm_test_top.env.axil_agt.sequencer@@seq_0 [NPU_SEQ] Read: addr=0x00000004, data=0x00000011
# UVM_INFO /home/minhnhut/Documents/EdgeNPU/verification/uvm/agents/axil_agent/axil_driver.sv(140) @ 7235000: uvm_test_top.env.axil_agt.driver [AXIL_DRV] Read: addr=0x00000004, data=0x00000011
# UVM_INFO /home/minhnhut/Documents/EdgeNPU/verification/uvm/sequences/npu_base_seq.sv(46) @ 7235000: uvm_test_top.env.axil_agt.sequencer@@seq_0 [NPU_SEQ] Read: addr=0x00000004, data=0x00000011
# UVM_INFO /home/minhnhut/Documents/EdgeNPU/verification/uvm/agents/axil_agent/axil_driver.sv(140) @ 7285000: uvm_test_top.env.axil_agt.driver [AXIL_DRV] Read: addr=0x00000004, data=0x00000011
# UVM_INFO /home/minhnhut/Documents/EdgeNPU/verification/uvm/sequences/npu_base_seq.sv(46) @ 7285000: uvm_test_top.env.axil_agt.sequencer@@seq_0 [NPU_SEQ] Read: addr=0x00000004, data=0x00000011
# UVM_INFO /home/minhnhut/Documents/EdgeNPU/verification/uvm/agents/axil_agent/axil_driver.sv(140) @ 7335000: uvm_test_top.env.axil_agt.driver [AXIL_DRV] Read: addr=0x00000004, data=0x00000011
# UVM_INFO /home/minhnhut/Documents/EdgeNPU/verification/uvm/sequences/npu_base_seq.sv(46) @ 7335000: uvm_test_top.env.axil_agt.sequencer@@seq_0 [NPU_SEQ] Read: addr=0x00000004, data=0x00000011
# UVM_INFO /home/minhnhut/Documents/EdgeNPU/verification/uvm/agents/axil_agent/axil_driver.sv(140) @ 7385000: uvm_test_top.env.axil_agt.driver [AXIL_DRV] Read: addr=0x00000004, data=0x00000011
# UVM_INFO /home/minhnhut/Documents/EdgeNPU/verification/uvm/sequences/npu_base_seq.sv(46) @ 7385000: uvm_test_top.env.axil_agt.sequencer@@seq_0 [NPU_SEQ] Read: addr=0x00000004, data=0x00000011
# UVM_INFO /home/minhnhut/Documents/EdgeNPU/verification/uvm/agents/axil_agent/axil_driver.sv(140) @ 7435000: uvm_test_top.env.axil_agt.driver [AXIL_DRV] Read: addr=0x00000004, data=0x00000011
# UVM_INFO /home/minhnhut/Documents/EdgeNPU/verification/uvm/sequences/npu_base_seq.sv(46) @ 7435000: uvm_test_top.env.axil_agt.sequencer@@seq_0 [NPU_SEQ] Read: addr=0x00000004, data=0x00000011
# UVM_INFO /home/minhnhut/Documents/EdgeNPU/verification/uvm/agents/axil_agent/axil_driver.sv(140) @ 7485000: uvm_test_top.env.axil_agt.driver [AXIL_DRV] Read: addr=0x00000004, data=0x00000011
# UVM_INFO /home/minhnhut/Documents/EdgeNPU/verification/uvm/sequences/npu_base_seq.sv(46) @ 7485000: uvm_test_top.env.axil_agt.sequencer@@seq_0 [NPU_SEQ] Read: addr=0x00000004, data=0x00000011
# UVM_INFO /home/minhnhut/Documents/EdgeNPU/verification/uvm/agents/axil_agent/axil_driver.sv(140) @ 7535000: uvm_test_top.env.axil_agt.driver [AXIL_DRV] Read: addr=0x00000004, data=0x00000011
# UVM_INFO /home/minhnhut/Documents/EdgeNPU/verification/uvm/sequences/npu_base_seq.sv(46) @ 7535000: uvm_test_top.env.axil_agt.sequencer@@seq_0 [NPU_SEQ] Read: addr=0x00000004, data=0x00000011
# UVM_INFO /home/minhnhut/Documents/EdgeNPU/verification/uvm/agents/axil_agent/axil_driver.sv(140) @ 7585000: uvm_test_top.env.axil_agt.driver [AXIL_DRV] Read: addr=0x00000004, data=0x00000011
# UVM_INFO /home/minhnhut/Documents/EdgeNPU/verification/uvm/sequences/npu_base_seq.sv(46) @ 7585000: uvm_test_top.env.axil_agt.sequencer@@seq_0 [NPU_SEQ] Read: addr=0x00000004, data=0x00000011
# UVM_INFO /home/minhnhut/Documents/EdgeNPU/verification/uvm/agents/axil_agent/axil_driver.sv(140) @ 7635000: uvm_test_top.env.axil_agt.driver [AXIL_DRV] Read: addr=0x00000004, data=0x00000011
# UVM_INFO /home/minhnhut/Documents/EdgeNPU/verification/uvm/sequences/npu_base_seq.sv(46) @ 7635000: uvm_test_top.env.axil_agt.sequencer@@seq_0 [NPU_SEQ] Read: addr=0x00000004, data=0x00000011
# UVM_INFO /home/minhnhut/Documents/EdgeNPU/verification/uvm/agents/axil_agent/axil_driver.sv(140) @ 7685000: uvm_test_top.env.axil_agt.driver [AXIL_DRV] Read: addr=0x00000004, data=0x00000011
# UVM_INFO /home/minhnhut/Documents/EdgeNPU/verification/uvm/sequences/npu_base_seq.sv(46) @ 7685000: uvm_test_top.env.axil_agt.sequencer@@seq_0 [NPU_SEQ] Read: addr=0x00000004, data=0x00000011
# UVM_INFO /home/minhnhut/Documents/EdgeNPU/verification/uvm/agents/axil_agent/axil_driver.sv(140) @ 7735000: uvm_test_top.env.axil_agt.driver [AXIL_DRV] Read: addr=0x00000004, data=0x00000011
# UVM_INFO /home/minhnhut/Documents/EdgeNPU/verification/uvm/sequences/npu_base_seq.sv(46) @ 7735000: uvm_test_top.env.axil_agt.sequencer@@seq_0 [NPU_SEQ] Read: addr=0x00000004, data=0x00000011
# UVM_INFO /home/minhnhut/Documents/EdgeNPU/verification/uvm/agents/axil_agent/axil_driver.sv(140) @ 7785000: uvm_test_top.env.axil_agt.driver [AXIL_DRV] Read: addr=0x00000004, data=0x00000011
# UVM_INFO /home/minhnhut/Documents/EdgeNPU/verification/uvm/sequences/npu_base_seq.sv(46) @ 7785000: uvm_test_top.env.axil_agt.sequencer@@seq_0 [NPU_SEQ] Read: addr=0x00000004, data=0x00000011
# UVM_INFO /home/minhnhut/Documents/EdgeNPU/verification/uvm/agents/axil_agent/axil_driver.sv(140) @ 7835000: uvm_test_top.env.axil_agt.driver [AXIL_DRV] Read: addr=0x00000004, data=0x00000011
# UVM_INFO /home/minhnhut/Documents/EdgeNPU/verification/uvm/sequences/npu_base_seq.sv(46) @ 7835000: uvm_test_top.env.axil_agt.sequencer@@seq_0 [NPU_SEQ] Read: addr=0x00000004, data=0x00000011
# UVM_INFO /home/minhnhut/Documents/EdgeNPU/verification/uvm/agents/axil_agent/axil_driver.sv(140) @ 7885000: uvm_test_top.env.axil_agt.driver [AXIL_DRV] Read: addr=0x00000004, data=0x00000011
# UVM_INFO /home/minhnhut/Documents/EdgeNPU/verification/uvm/sequences/npu_base_seq.sv(46) @ 7885000: uvm_test_top.env.axil_agt.sequencer@@seq_0 [NPU_SEQ] Read: addr=0x00000004, data=0x00000011
# UVM_INFO /home/minhnhut/Documents/EdgeNPU/verification/uvm/agents/axil_agent/axil_driver.sv(140) @ 7935000: uvm_test_top.env.axil_agt.driver [AXIL_DRV] Read: addr=0x00000004, data=0x00000011
# UVM_INFO /home/minhnhut/Documents/EdgeNPU/verification/uvm/sequences/npu_base_seq.sv(46) @ 7935000: uvm_test_top.env.axil_agt.sequencer@@seq_0 [NPU_SEQ] Read: addr=0x00000004, data=0x00000011
# UVM_INFO /home/minhnhut/Documents/EdgeNPU/verification/uvm/agents/axil_agent/axil_driver.sv(140) @ 7985000: uvm_test_top.env.axil_agt.driver [AXIL_DRV] Read: addr=0x00000004, data=0x00000011
# UVM_INFO /home/minhnhut/Documents/EdgeNPU/verification/uvm/sequences/npu_base_seq.sv(46) @ 7985000: uvm_test_top.env.axil_agt.sequencer@@seq_0 [NPU_SEQ] Read: addr=0x00000004, data=0x00000011
# UVM_INFO /home/minhnhut/Documents/EdgeNPU/verification/uvm/agents/axil_agent/axil_driver.sv(140) @ 8035000: uvm_test_top.env.axil_agt.driver [AXIL_DRV] Read: addr=0x00000004, data=0x00000011
# UVM_INFO /home/minhnhut/Documents/EdgeNPU/verification/uvm/sequences/npu_base_seq.sv(46) @ 8035000: uvm_test_top.env.axil_agt.sequencer@@seq_0 [NPU_SEQ] Read: addr=0x00000004, data=0x00000011
# UVM_INFO /home/minhnhut/Documents/EdgeNPU/verification/uvm/agents/axil_agent/axil_driver.sv(140) @ 8085000: uvm_test_top.env.axil_agt.driver [AXIL_DRV] Read: addr=0x00000004, data=0x00000011
# UVM_INFO /home/minhnhut/Documents/EdgeNPU/verification/uvm/sequences/npu_base_seq.sv(46) @ 8085000: uvm_test_top.env.axil_agt.sequencer@@seq_0 [NPU_SEQ] Read: addr=0x00000004, data=0x00000011
# UVM_INFO /home/minhnhut/Documents/EdgeNPU/verification/uvm/agents/axil_agent/axil_driver.sv(140) @ 8135000: uvm_test_top.env.axil_agt.driver [AXIL_DRV] Read: addr=0x00000004, data=0x00000011
# UVM_INFO /home/minhnhut/Documents/EdgeNPU/verification/uvm/sequences/npu_base_seq.sv(46) @ 8135000: uvm_test_top.env.axil_agt.sequencer@@seq_0 [NPU_SEQ] Read: addr=0x00000004, data=0x00000011
# UVM_INFO /home/minhnhut/Documents/EdgeNPU/verification/uvm/agents/axil_agent/axil_driver.sv(140) @ 8185000: uvm_test_top.env.axil_agt.driver [AXIL_DRV] Read: addr=0x00000004, data=0x00000011
# UVM_INFO /home/minhnhut/Documents/EdgeNPU/verification/uvm/sequences/npu_base_seq.sv(46) @ 8185000: uvm_test_top.env.axil_agt.sequencer@@seq_0 [NPU_SEQ] Read: addr=0x00000004, data=0x00000011
# UVM_INFO /home/minhnhut/Documents/EdgeNPU/verification/uvm/agents/axil_agent/axil_driver.sv(140) @ 8235000: uvm_test_top.env.axil_agt.driver [AXIL_DRV] Read: addr=0x00000004, data=0x00000011
# UVM_INFO /home/minhnhut/Documents/EdgeNPU/verification/uvm/sequences/npu_base_seq.sv(46) @ 8235000: uvm_test_top.env.axil_agt.sequencer@@seq_0 [NPU_SEQ] Read: addr=0x00000004, data=0x00000011
# UVM_INFO /home/minhnhut/Documents/EdgeNPU/verification/uvm/agents/axil_agent/axil_driver.sv(140) @ 8285000: uvm_test_top.env.axil_agt.driver [AXIL_DRV] Read: addr=0x00000004, data=0x00000011
# UVM_INFO /home/minhnhut/Documents/EdgeNPU/verification/uvm/sequences/npu_base_seq.sv(46) @ 8285000: uvm_test_top.env.axil_agt.sequencer@@seq_0 [NPU_SEQ] Read: addr=0x00000004, data=0x00000011
# UVM_INFO /home/minhnhut/Documents/EdgeNPU/verification/uvm/agents/axil_agent/axil_driver.sv(140) @ 8335000: uvm_test_top.env.axil_agt.driver [AXIL_DRV] Read: addr=0x00000004, data=0x00000011
# UVM_INFO /home/minhnhut/Documents/EdgeNPU/verification/uvm/sequences/npu_base_seq.sv(46) @ 8335000: uvm_test_top.env.axil_agt.sequencer@@seq_0 [NPU_SEQ] Read: addr=0x00000004, data=0x00000011
# UVM_INFO /home/minhnhut/Documents/EdgeNPU/verification/uvm/agents/axil_agent/axil_driver.sv(140) @ 8385000: uvm_test_top.env.axil_agt.driver [AXIL_DRV] Read: addr=0x00000004, data=0x00000011
# UVM_INFO /home/minhnhut/Documents/EdgeNPU/verification/uvm/sequences/npu_base_seq.sv(46) @ 8385000: uvm_test_top.env.axil_agt.sequencer@@seq_0 [NPU_SEQ] Read: addr=0x00000004, data=0x00000011
# UVM_INFO /home/minhnhut/Documents/EdgeNPU/verification/uvm/agents/axil_agent/axil_driver.sv(140) @ 8435000: uvm_test_top.env.axil_agt.driver [AXIL_DRV] Read: addr=0x00000004, data=0x00000011
# UVM_INFO /home/minhnhut/Documents/EdgeNPU/verification/uvm/sequences/npu_base_seq.sv(46) @ 8435000: uvm_test_top.env.axil_agt.sequencer@@seq_0 [NPU_SEQ] Read: addr=0x00000004, data=0x00000011
# UVM_INFO /home/minhnhut/Documents/EdgeNPU/verification/uvm/agents/axil_agent/axil_driver.sv(140) @ 8485000: uvm_test_top.env.axil_agt.driver [AXIL_DRV] Read: addr=0x00000004, data=0x00000011
# UVM_INFO /home/minhnhut/Documents/EdgeNPU/verification/uvm/sequences/npu_base_seq.sv(46) @ 8485000: uvm_test_top.env.axil_agt.sequencer@@seq_0 [NPU_SEQ] Read: addr=0x00000004, data=0x00000011
# UVM_INFO /home/minhnhut/Documents/EdgeNPU/verification/uvm/agents/axil_agent/axil_driver.sv(140) @ 8535000: uvm_test_top.env.axil_agt.driver [AXIL_DRV] Read: addr=0x00000004, data=0x00000011
# UVM_INFO /home/minhnhut/Documents/EdgeNPU/verification/uvm/sequences/npu_base_seq.sv(46) @ 8535000: uvm_test_top.env.axil_agt.sequencer@@seq_0 [NPU_SEQ] Read: addr=0x00000004, data=0x00000011
# UVM_INFO /home/minhnhut/Documents/EdgeNPU/verification/uvm/agents/axil_agent/axil_driver.sv(140) @ 8585000: uvm_test_top.env.axil_agt.driver [AXIL_DRV] Read: addr=0x00000004, data=0x00000011
# UVM_INFO /home/minhnhut/Documents/EdgeNPU/verification/uvm/sequences/npu_base_seq.sv(46) @ 8585000: uvm_test_top.env.axil_agt.sequencer@@seq_0 [NPU_SEQ] Read: addr=0x00000004, data=0x00000011
# UVM_INFO /home/minhnhut/Documents/EdgeNPU/verification/uvm/agents/axil_agent/axil_driver.sv(140) @ 8635000: uvm_test_top.env.axil_agt.driver [AXIL_DRV] Read: addr=0x00000004, data=0x00000011
# UVM_INFO /home/minhnhut/Documents/EdgeNPU/verification/uvm/sequences/npu_base_seq.sv(46) @ 8635000: uvm_test_top.env.axil_agt.sequencer@@seq_0 [NPU_SEQ] Read: addr=0x00000004, data=0x00000011
# UVM_INFO /home/minhnhut/Documents/EdgeNPU/verification/uvm/agents/axil_agent/axil_driver.sv(140) @ 8685000: uvm_test_top.env.axil_agt.driver [AXIL_DRV] Read: addr=0x00000004, data=0x00000011
# UVM_INFO /home/minhnhut/Documents/EdgeNPU/verification/uvm/sequences/npu_base_seq.sv(46) @ 8685000: uvm_test_top.env.axil_agt.sequencer@@seq_0 [NPU_SEQ] Read: addr=0x00000004, data=0x00000011
# UVM_INFO /home/minhnhut/Documents/EdgeNPU/verification/uvm/agents/axil_agent/axil_driver.sv(140) @ 8735000: uvm_test_top.env.axil_agt.driver [AXIL_DRV] Read: addr=0x00000004, data=0x00000011
# UVM_INFO /home/minhnhut/Documents/EdgeNPU/verification/uvm/sequences/npu_base_seq.sv(46) @ 8735000: uvm_test_top.env.axil_agt.sequencer@@seq_0 [NPU_SEQ] Read: addr=0x00000004, data=0x00000011
# UVM_INFO /home/minhnhut/Documents/EdgeNPU/verification/uvm/agents/axil_agent/axil_driver.sv(140) @ 8785000: uvm_test_top.env.axil_agt.driver [AXIL_DRV] Read: addr=0x00000004, data=0x00000011
# UVM_INFO /home/minhnhut/Documents/EdgeNPU/verification/uvm/sequences/npu_base_seq.sv(46) @ 8785000: uvm_test_top.env.axil_agt.sequencer@@seq_0 [NPU_SEQ] Read: addr=0x00000004, data=0x00000011
# UVM_INFO /home/minhnhut/Documents/EdgeNPU/verification/uvm/agents/axil_agent/axil_driver.sv(140) @ 8835000: uvm_test_top.env.axil_agt.driver [AXIL_DRV] Read: addr=0x00000004, data=0x00000011
# UVM_INFO /home/minhnhut/Documents/EdgeNPU/verification/uvm/sequences/npu_base_seq.sv(46) @ 8835000: uvm_test_top.env.axil_agt.sequencer@@seq_0 [NPU_SEQ] Read: addr=0x00000004, data=0x00000011
# UVM_INFO /home/minhnhut/Documents/EdgeNPU/verification/uvm/agents/axil_agent/axil_driver.sv(140) @ 8885000: uvm_test_top.env.axil_agt.driver [AXIL_DRV] Read: addr=0x00000004, data=0x00000011
# UVM_INFO /home/minhnhut/Documents/EdgeNPU/verification/uvm/sequences/npu_base_seq.sv(46) @ 8885000: uvm_test_top.env.axil_agt.sequencer@@seq_0 [NPU_SEQ] Read: addr=0x00000004, data=0x00000011
# UVM_INFO /home/minhnhut/Documents/EdgeNPU/verification/uvm/agents/axil_agent/axil_driver.sv(140) @ 8935000: uvm_test_top.env.axil_agt.driver [AXIL_DRV] Read: addr=0x00000004, data=0x00000011
# UVM_INFO /home/minhnhut/Documents/EdgeNPU/verification/uvm/sequences/npu_base_seq.sv(46) @ 8935000: uvm_test_top.env.axil_agt.sequencer@@seq_0 [NPU_SEQ] Read: addr=0x00000004, data=0x00000011
# UVM_INFO /home/minhnhut/Documents/EdgeNPU/verification/uvm/agents/axil_agent/axil_driver.sv(140) @ 8985000: uvm_test_top.env.axil_agt.driver [AXIL_DRV] Read: addr=0x00000004, data=0x00000011
# UVM_INFO /home/minhnhut/Documents/EdgeNPU/verification/uvm/sequences/npu_base_seq.sv(46) @ 8985000: uvm_test_top.env.axil_agt.sequencer@@seq_0 [NPU_SEQ] Read: addr=0x00000004, data=0x00000011
# UVM_INFO /home/minhnhut/Documents/EdgeNPU/verification/uvm/agents/axil_agent/axil_driver.sv(140) @ 9035000: uvm_test_top.env.axil_agt.driver [AXIL_DRV] Read: addr=0x00000004, data=0x00000011
# UVM_INFO /home/minhnhut/Documents/EdgeNPU/verification/uvm/sequences/npu_base_seq.sv(46) @ 9035000: uvm_test_top.env.axil_agt.sequencer@@seq_0 [NPU_SEQ] Read: addr=0x00000004, data=0x00000011
# UVM_INFO /home/minhnhut/Documents/EdgeNPU/verification/uvm/agents/axil_agent/axil_driver.sv(140) @ 9085000: uvm_test_top.env.axil_agt.driver [AXIL_DRV] Read: addr=0x00000004, data=0x00000011
# UVM_INFO /home/minhnhut/Documents/EdgeNPU/verification/uvm/sequences/npu_base_seq.sv(46) @ 9085000: uvm_test_top.env.axil_agt.sequencer@@seq_0 [NPU_SEQ] Read: addr=0x00000004, data=0x00000011
# UVM_INFO /home/minhnhut/Documents/EdgeNPU/verification/uvm/agents/axil_agent/axil_driver.sv(140) @ 9135000: uvm_test_top.env.axil_agt.driver [AXIL_DRV] Read: addr=0x00000004, data=0x00000011
# UVM_INFO /home/minhnhut/Documents/EdgeNPU/verification/uvm/sequences/npu_base_seq.sv(46) @ 9135000: uvm_test_top.env.axil_agt.sequencer@@seq_0 [NPU_SEQ] Read: addr=0x00000004, data=0x00000011
# UVM_INFO /home/minhnhut/Documents/EdgeNPU/verification/uvm/agents/axil_agent/axil_driver.sv(140) @ 9185000: uvm_test_top.env.axil_agt.driver [AXIL_DRV] Read: addr=0x00000004, data=0x00000011
# UVM_INFO /home/minhnhut/Documents/EdgeNPU/verification/uvm/sequences/npu_base_seq.sv(46) @ 9185000: uvm_test_top.env.axil_agt.sequencer@@seq_0 [NPU_SEQ] Read: addr=0x00000004, data=0x00000011
# UVM_INFO /home/minhnhut/Documents/EdgeNPU/verification/uvm/agents/axil_agent/axil_driver.sv(140) @ 9235000: uvm_test_top.env.axil_agt.driver [AXIL_DRV] Read: addr=0x00000004, data=0x00000011
# UVM_INFO /home/minhnhut/Documents/EdgeNPU/verification/uvm/sequences/npu_base_seq.sv(46) @ 9235000: uvm_test_top.env.axil_agt.sequencer@@seq_0 [NPU_SEQ] Read: addr=0x00000004, data=0x00000011
# UVM_INFO /home/minhnhut/Documents/EdgeNPU/verification/uvm/agents/axil_agent/axil_driver.sv(140) @ 9285000: uvm_test_top.env.axil_agt.driver [AXIL_DRV] Read: addr=0x00000004, data=0x00000011
# UVM_INFO /home/minhnhut/Documents/EdgeNPU/verification/uvm/sequences/npu_base_seq.sv(46) @ 9285000: uvm_test_top.env.axil_agt.sequencer@@seq_0 [NPU_SEQ] Read: addr=0x00000004, data=0x00000011
# UVM_INFO /home/minhnhut/Documents/EdgeNPU/verification/uvm/agents/axil_agent/axil_driver.sv(140) @ 9335000: uvm_test_top.env.axil_agt.driver [AXIL_DRV] Read: addr=0x00000004, data=0x00000011
# UVM_INFO /home/minhnhut/Documents/EdgeNPU/verification/uvm/sequences/npu_base_seq.sv(46) @ 9335000: uvm_test_top.env.axil_agt.sequencer@@seq_0 [NPU_SEQ] Read: addr=0x00000004, data=0x00000011
# UVM_INFO /home/minhnhut/Documents/EdgeNPU/verification/uvm/agents/axil_agent/axil_driver.sv(140) @ 9385000: uvm_test_top.env.axil_agt.driver [AXIL_DRV] Read: addr=0x00000004, data=0x00000011
# UVM_INFO /home/minhnhut/Documents/EdgeNPU/verification/uvm/sequences/npu_base_seq.sv(46) @ 9385000: uvm_test_top.env.axil_agt.sequencer@@seq_0 [NPU_SEQ] Read: addr=0x00000004, data=0x00000011
# UVM_INFO /home/minhnhut/Documents/EdgeNPU/verification/uvm/agents/axil_agent/axil_driver.sv(140) @ 9435000: uvm_test_top.env.axil_agt.driver [AXIL_DRV] Read: addr=0x00000004, data=0x00000011
# UVM_INFO /home/minhnhut/Documents/EdgeNPU/verification/uvm/sequences/npu_base_seq.sv(46) @ 9435000: uvm_test_top.env.axil_agt.sequencer@@seq_0 [NPU_SEQ] Read: addr=0x00000004, data=0x00000011
# UVM_INFO /home/minhnhut/Documents/EdgeNPU/verification/uvm/agents/axil_agent/axil_driver.sv(140) @ 9485000: uvm_test_top.env.axil_agt.driver [AXIL_DRV] Read: addr=0x00000004, data=0x00000011
# UVM_INFO /home/minhnhut/Documents/EdgeNPU/verification/uvm/sequences/npu_base_seq.sv(46) @ 9485000: uvm_test_top.env.axil_agt.sequencer@@seq_0 [NPU_SEQ] Read: addr=0x00000004, data=0x00000011
# UVM_INFO /home/minhnhut/Documents/EdgeNPU/verification/uvm/agents/axil_agent/axil_driver.sv(140) @ 9535000: uvm_test_top.env.axil_agt.driver [AXIL_DRV] Read: addr=0x00000004, data=0x00000011
# UVM_INFO /home/minhnhut/Documents/EdgeNPU/verification/uvm/sequences/npu_base_seq.sv(46) @ 9535000: uvm_test_top.env.axil_agt.sequencer@@seq_0 [NPU_SEQ] Read: addr=0x00000004, data=0x00000011
# UVM_INFO /home/minhnhut/Documents/EdgeNPU/verification/uvm/agents/axil_agent/axil_driver.sv(140) @ 9585000: uvm_test_top.env.axil_agt.driver [AXIL_DRV] Read: addr=0x00000004, data=0x00000011
# UVM_INFO /home/minhnhut/Documents/EdgeNPU/verification/uvm/sequences/npu_base_seq.sv(46) @ 9585000: uvm_test_top.env.axil_agt.sequencer@@seq_0 [NPU_SEQ] Read: addr=0x00000004, data=0x00000011
# UVM_INFO /home/minhnhut/Documents/EdgeNPU/verification/uvm/agents/axil_agent/axil_driver.sv(140) @ 9635000: uvm_test_top.env.axil_agt.driver [AXIL_DRV] Read: addr=0x00000004, data=0x00000011
# UVM_INFO /home/minhnhut/Documents/EdgeNPU/verification/uvm/sequences/npu_base_seq.sv(46) @ 9635000: uvm_test_top.env.axil_agt.sequencer@@seq_0 [NPU_SEQ] Read: addr=0x00000004, data=0x00000011
# UVM_INFO /home/minhnhut/Documents/EdgeNPU/verification/uvm/agents/axil_agent/axil_driver.sv(140) @ 9685000: uvm_test_top.env.axil_agt.driver [AXIL_DRV] Read: addr=0x00000004, data=0x00000011
# UVM_INFO /home/minhnhut/Documents/EdgeNPU/verification/uvm/sequences/npu_base_seq.sv(46) @ 9685000: uvm_test_top.env.axil_agt.sequencer@@seq_0 [NPU_SEQ] Read: addr=0x00000004, data=0x00000011
# UVM_INFO /home/minhnhut/Documents/EdgeNPU/verification/uvm/agents/axil_agent/axil_driver.sv(140) @ 9735000: uvm_test_top.env.axil_agt.driver [AXIL_DRV] Read: addr=0x00000004, data=0x00000011
# UVM_INFO /home/minhnhut/Documents/EdgeNPU/verification/uvm/sequences/npu_base_seq.sv(46) @ 9735000: uvm_test_top.env.axil_agt.sequencer@@seq_0 [NPU_SEQ] Read: addr=0x00000004, data=0x00000011
# UVM_INFO /home/minhnhut/Documents/EdgeNPU/verification/uvm/agents/axil_agent/axil_driver.sv(140) @ 9785000: uvm_test_top.env.axil_agt.driver [AXIL_DRV] Read: addr=0x00000004, data=0x00000011
# UVM_INFO /home/minhnhut/Documents/EdgeNPU/verification/uvm/sequences/npu_base_seq.sv(46) @ 9785000: uvm_test_top.env.axil_agt.sequencer@@seq_0 [NPU_SEQ] Read: addr=0x00000004, data=0x00000011
# UVM_INFO /home/minhnhut/Documents/EdgeNPU/verification/uvm/agents/axil_agent/axil_driver.sv(140) @ 9835000: uvm_test_top.env.axil_agt.driver [AXIL_DRV] Read: addr=0x00000004, data=0x00000011
# UVM_INFO /home/minhnhut/Documents/EdgeNPU/verification/uvm/sequences/npu_base_seq.sv(46) @ 9835000: uvm_test_top.env.axil_agt.sequencer@@seq_0 [NPU_SEQ] Read: addr=0x00000004, data=0x00000011
# UVM_INFO /home/minhnhut/Documents/EdgeNPU/verification/uvm/agents/axil_agent/axil_driver.sv(140) @ 9885000: uvm_test_top.env.axil_agt.driver [AXIL_DRV] Read: addr=0x00000004, data=0x00000011
# UVM_INFO /home/minhnhut/Documents/EdgeNPU/verification/uvm/sequences/npu_base_seq.sv(46) @ 9885000: uvm_test_top.env.axil_agt.sequencer@@seq_0 [NPU_SEQ] Read: addr=0x00000004, data=0x00000011
# UVM_INFO /home/minhnhut/Documents/EdgeNPU/verification/uvm/agents/axil_agent/axil_driver.sv(140) @ 9935000: uvm_test_top.env.axil_agt.driver [AXIL_DRV] Read: addr=0x00000004, data=0x00000011
# UVM_INFO /home/minhnhut/Documents/EdgeNPU/verification/uvm/sequences/npu_base_seq.sv(46) @ 9935000: uvm_test_top.env.axil_agt.sequencer@@seq_0 [NPU_SEQ] Read: addr=0x00000004, data=0x00000011
# UVM_INFO /home/minhnhut/Documents/EdgeNPU/verification/uvm/agents/axil_agent/axil_driver.sv(140) @ 9985000: uvm_test_top.env.axil_agt.driver [AXIL_DRV] Read: addr=0x00000004, data=0x00000011
# UVM_INFO /home/minhnhut/Documents/EdgeNPU/verification/uvm/sequences/npu_base_seq.sv(46) @ 9985000: uvm_test_top.env.axil_agt.sequencer@@seq_0 [NPU_SEQ] Read: addr=0x00000004, data=0x00000011
# UVM_INFO /home/minhnhut/Documents/EdgeNPU/verification/uvm/agents/axil_agent/axil_driver.sv(140) @ 10035000: uvm_test_top.env.axil_agt.driver [AXIL_DRV] Read: addr=0x00000004, data=0x00000011
# UVM_INFO /home/minhnhut/Documents/EdgeNPU/verification/uvm/sequences/npu_base_seq.sv(46) @ 10035000: uvm_test_top.env.axil_agt.sequencer@@seq_0 [NPU_SEQ] Read: addr=0x00000004, data=0x00000011
# UVM_INFO /home/minhnhut/Documents/EdgeNPU/verification/uvm/agents/axil_agent/axil_driver.sv(140) @ 10085000: uvm_test_top.env.axil_agt.driver [AXIL_DRV] Read: addr=0x00000004, data=0x00000011
# UVM_INFO /home/minhnhut/Documents/EdgeNPU/verification/uvm/sequences/npu_base_seq.sv(46) @ 10085000: uvm_test_top.env.axil_agt.sequencer@@seq_0 [NPU_SEQ] Read: addr=0x00000004, data=0x00000011
# UVM_INFO /home/minhnhut/Documents/EdgeNPU/verification/uvm/agents/axil_agent/axil_driver.sv(140) @ 10135000: uvm_test_top.env.axil_agt.driver [AXIL_DRV] Read: addr=0x00000004, data=0x00000011
# UVM_INFO /home/minhnhut/Documents/EdgeNPU/verification/uvm/sequences/npu_base_seq.sv(46) @ 10135000: uvm_test_top.env.axil_agt.sequencer@@seq_0 [NPU_SEQ] Read: addr=0x00000004, data=0x00000011
# UVM_INFO /home/minhnhut/Documents/EdgeNPU/verification/uvm/agents/axil_agent/axil_driver.sv(140) @ 10185000: uvm_test_top.env.axil_agt.driver [AXIL_DRV] Read: addr=0x00000004, data=0x00000011
# UVM_INFO /home/minhnhut/Documents/EdgeNPU/verification/uvm/sequences/npu_base_seq.sv(46) @ 10185000: uvm_test_top.env.axil_agt.sequencer@@seq_0 [NPU_SEQ] Read: addr=0x00000004, data=0x00000011
# UVM_INFO /home/minhnhut/Documents/EdgeNPU/verification/uvm/agents/axil_agent/axil_driver.sv(140) @ 10235000: uvm_test_top.env.axil_agt.driver [AXIL_DRV] Read: addr=0x00000004, data=0x00000011
# UVM_INFO /home/minhnhut/Documents/EdgeNPU/verification/uvm/sequences/npu_base_seq.sv(46) @ 10235000: uvm_test_top.env.axil_agt.sequencer@@seq_0 [NPU_SEQ] Read: addr=0x00000004, data=0x00000011
# UVM_INFO /home/minhnhut/Documents/EdgeNPU/verification/uvm/agents/axil_agent/axil_driver.sv(140) @ 10285000: uvm_test_top.env.axil_agt.driver [AXIL_DRV] Read: addr=0x00000004, data=0x00000011
# UVM_INFO /home/minhnhut/Documents/EdgeNPU/verification/uvm/sequences/npu_base_seq.sv(46) @ 10285000: uvm_test_top.env.axil_agt.sequencer@@seq_0 [NPU_SEQ] Read: addr=0x00000004, data=0x00000011
# UVM_INFO /home/minhnhut/Documents/EdgeNPU/verification/uvm/agents/axil_agent/axil_driver.sv(140) @ 10335000: uvm_test_top.env.axil_agt.driver [AXIL_DRV] Read: addr=0x00000004, data=0x00000011
# UVM_INFO /home/minhnhut/Documents/EdgeNPU/verification/uvm/sequences/npu_base_seq.sv(46) @ 10335000: uvm_test_top.env.axil_agt.sequencer@@seq_0 [NPU_SEQ] Read: addr=0x00000004, data=0x00000011
# UVM_INFO /home/minhnhut/Documents/EdgeNPU/verification/uvm/agents/axil_agent/axil_driver.sv(140) @ 10385000: uvm_test_top.env.axil_agt.driver [AXIL_DRV] Read: addr=0x00000004, data=0x00000011
# UVM_INFO /home/minhnhut/Documents/EdgeNPU/verification/uvm/sequences/npu_base_seq.sv(46) @ 10385000: uvm_test_top.env.axil_agt.sequencer@@seq_0 [NPU_SEQ] Read: addr=0x00000004, data=0x00000011
# UVM_INFO /home/minhnhut/Documents/EdgeNPU/verification/uvm/agents/axil_agent/axil_driver.sv(140) @ 10435000: uvm_test_top.env.axil_agt.driver [AXIL_DRV] Read: addr=0x00000004, data=0x00000011
# UVM_INFO /home/minhnhut/Documents/EdgeNPU/verification/uvm/sequences/npu_base_seq.sv(46) @ 10435000: uvm_test_top.env.axil_agt.sequencer@@seq_0 [NPU_SEQ] Read: addr=0x00000004, data=0x00000011
# UVM_INFO /home/minhnhut/Documents/EdgeNPU/verification/uvm/agents/axil_agent/axil_driver.sv(140) @ 10485000: uvm_test_top.env.axil_agt.driver [AXIL_DRV] Read: addr=0x00000004, data=0x00000011
# UVM_INFO /home/minhnhut/Documents/EdgeNPU/verification/uvm/sequences/npu_base_seq.sv(46) @ 10485000: uvm_test_top.env.axil_agt.sequencer@@seq_0 [NPU_SEQ] Read: addr=0x00000004, data=0x00000011
# UVM_INFO /home/minhnhut/Documents/EdgeNPU/verification/uvm/agents/axil_agent/axil_driver.sv(140) @ 10535000: uvm_test_top.env.axil_agt.driver [AXIL_DRV] Read: addr=0x00000004, data=0x00000011
# UVM_INFO /home/minhnhut/Documents/EdgeNPU/verification/uvm/sequences/npu_base_seq.sv(46) @ 10535000: uvm_test_top.env.axil_agt.sequencer@@seq_0 [NPU_SEQ] Read: addr=0x00000004, data=0x00000011
# UVM_INFO /home/minhnhut/Documents/EdgeNPU/verification/uvm/agents/axil_agent/axil_driver.sv(140) @ 10585000: uvm_test_top.env.axil_agt.driver [AXIL_DRV] Read: addr=0x00000004, data=0x00000011
# UVM_INFO /home/minhnhut/Documents/EdgeNPU/verification/uvm/sequences/npu_base_seq.sv(46) @ 10585000: uvm_test_top.env.axil_agt.sequencer@@seq_0 [NPU_SEQ] Read: addr=0x00000004, data=0x00000011
# UVM_INFO /home/minhnhut/Documents/EdgeNPU/verification/uvm/agents/axil_agent/axil_driver.sv(140) @ 10635000: uvm_test_top.env.axil_agt.driver [AXIL_DRV] Read: addr=0x00000004, data=0x00000011
# UVM_INFO /home/minhnhut/Documents/EdgeNPU/verification/uvm/sequences/npu_base_seq.sv(46) @ 10635000: uvm_test_top.env.axil_agt.sequencer@@seq_0 [NPU_SEQ] Read: addr=0x00000004, data=0x00000011
# UVM_INFO /home/minhnhut/Documents/EdgeNPU/verification/uvm/agents/axil_agent/axil_driver.sv(140) @ 10685000: uvm_test_top.env.axil_agt.driver [AXIL_DRV] Read: addr=0x00000004, data=0x00000011
# UVM_INFO /home/minhnhut/Documents/EdgeNPU/verification/uvm/sequences/npu_base_seq.sv(46) @ 10685000: uvm_test_top.env.axil_agt.sequencer@@seq_0 [NPU_SEQ] Read: addr=0x00000004, data=0x00000011
# UVM_INFO /home/minhnhut/Documents/EdgeNPU/verification/uvm/agents/axil_agent/axil_driver.sv(140) @ 10735000: uvm_test_top.env.axil_agt.driver [AXIL_DRV] Read: addr=0x00000004, data=0x00000011
# UVM_INFO /home/minhnhut/Documents/EdgeNPU/verification/uvm/sequences/npu_base_seq.sv(46) @ 10735000: uvm_test_top.env.axil_agt.sequencer@@seq_0 [NPU_SEQ] Read: addr=0x00000004, data=0x00000011
# UVM_INFO /home/minhnhut/Documents/EdgeNPU/verification/uvm/agents/axil_agent/axil_driver.sv(140) @ 10785000: uvm_test_top.env.axil_agt.driver [AXIL_DRV] Read: addr=0x00000004, data=0x00000011
# UVM_INFO /home/minhnhut/Documents/EdgeNPU/verification/uvm/sequences/npu_base_seq.sv(46) @ 10785000: uvm_test_top.env.axil_agt.sequencer@@seq_0 [NPU_SEQ] Read: addr=0x00000004, data=0x00000011
# UVM_INFO /home/minhnhut/Documents/EdgeNPU/verification/uvm/agents/axil_agent/axil_driver.sv(140) @ 10835000: uvm_test_top.env.axil_agt.driver [AXIL_DRV] Read: addr=0x00000004, data=0x00000011
# UVM_INFO /home/minhnhut/Documents/EdgeNPU/verification/uvm/sequences/npu_base_seq.sv(46) @ 10835000: uvm_test_top.env.axil_agt.sequencer@@seq_0 [NPU_SEQ] Read: addr=0x00000004, data=0x00000011
# UVM_INFO /home/minhnhut/Documents/EdgeNPU/verification/uvm/agents/axil_agent/axil_driver.sv(140) @ 10885000: uvm_test_top.env.axil_agt.driver [AXIL_DRV] Read: addr=0x00000004, data=0x00000011
# UVM_INFO /home/minhnhut/Documents/EdgeNPU/verification/uvm/sequences/npu_base_seq.sv(46) @ 10885000: uvm_test_top.env.axil_agt.sequencer@@seq_0 [NPU_SEQ] Read: addr=0x00000004, data=0x00000011
# UVM_INFO /home/minhnhut/Documents/EdgeNPU/verification/uvm/agents/axil_agent/axil_driver.sv(140) @ 10935000: uvm_test_top.env.axil_agt.driver [AXIL_DRV] Read: addr=0x00000004, data=0x00000011
# UVM_INFO /home/minhnhut/Documents/EdgeNPU/verification/uvm/sequences/npu_base_seq.sv(46) @ 10935000: uvm_test_top.env.axil_agt.sequencer@@seq_0 [NPU_SEQ] Read: addr=0x00000004, data=0x00000011
# UVM_INFO /home/minhnhut/Documents/EdgeNPU/verification/uvm/agents/axil_agent/axil_driver.sv(140) @ 10985000: uvm_test_top.env.axil_agt.driver [AXIL_DRV] Read: addr=0x00000004, data=0x00000011
# UVM_INFO /home/minhnhut/Documents/EdgeNPU/verification/uvm/sequences/npu_base_seq.sv(46) @ 10985000: uvm_test_top.env.axil_agt.sequencer@@seq_0 [NPU_SEQ] Read: addr=0x00000004, data=0x00000011
# UVM_INFO /home/minhnhut/Documents/EdgeNPU/verification/uvm/agents/axil_agent/axil_driver.sv(140) @ 11035000: uvm_test_top.env.axil_agt.driver [AXIL_DRV] Read: addr=0x00000004, data=0x00000011
# UVM_INFO /home/minhnhut/Documents/EdgeNPU/verification/uvm/sequences/npu_base_seq.sv(46) @ 11035000: uvm_test_top.env.axil_agt.sequencer@@seq_0 [NPU_SEQ] Read: addr=0x00000004, data=0x00000011
# UVM_INFO /home/minhnhut/Documents/EdgeNPU/verification/uvm/agents/axil_agent/axil_driver.sv(140) @ 11085000: uvm_test_top.env.axil_agt.driver [AXIL_DRV] Read: addr=0x00000004, data=0x00000011
# UVM_INFO /home/minhnhut/Documents/EdgeNPU/verification/uvm/sequences/npu_base_seq.sv(46) @ 11085000: uvm_test_top.env.axil_agt.sequencer@@seq_0 [NPU_SEQ] Read: addr=0x00000004, data=0x00000011
# UVM_INFO /home/minhnhut/Documents/EdgeNPU/verification/uvm/agents/axil_agent/axil_driver.sv(140) @ 11135000: uvm_test_top.env.axil_agt.driver [AXIL_DRV] Read: addr=0x00000004, data=0x00000011
# UVM_INFO /home/minhnhut/Documents/EdgeNPU/verification/uvm/sequences/npu_base_seq.sv(46) @ 11135000: uvm_test_top.env.axil_agt.sequencer@@seq_0 [NPU_SEQ] Read: addr=0x00000004, data=0x00000011
# UVM_INFO /home/minhnhut/Documents/EdgeNPU/verification/uvm/agents/axil_agent/axil_driver.sv(140) @ 11185000: uvm_test_top.env.axil_agt.driver [AXIL_DRV] Read: addr=0x00000004, data=0x00000011
# UVM_INFO /home/minhnhut/Documents/EdgeNPU/verification/uvm/sequences/npu_base_seq.sv(46) @ 11185000: uvm_test_top.env.axil_agt.sequencer@@seq_0 [NPU_SEQ] Read: addr=0x00000004, data=0x00000011
# UVM_INFO /home/minhnhut/Documents/EdgeNPU/verification/uvm/agents/axil_agent/axil_driver.sv(140) @ 11235000: uvm_test_top.env.axil_agt.driver [AXIL_DRV] Read: addr=0x00000004, data=0x00000011
# UVM_INFO /home/minhnhut/Documents/EdgeNPU/verification/uvm/sequences/npu_base_seq.sv(46) @ 11235000: uvm_test_top.env.axil_agt.sequencer@@seq_0 [NPU_SEQ] Read: addr=0x00000004, data=0x00000011
# UVM_INFO /home/minhnhut/Documents/EdgeNPU/verification/uvm/agents/axil_agent/axil_driver.sv(140) @ 11285000: uvm_test_top.env.axil_agt.driver [AXIL_DRV] Read: addr=0x00000004, data=0x00000011
# UVM_INFO /home/minhnhut/Documents/EdgeNPU/verification/uvm/sequences/npu_base_seq.sv(46) @ 11285000: uvm_test_top.env.axil_agt.sequencer@@seq_0 [NPU_SEQ] Read: addr=0x00000004, data=0x00000011
# UVM_INFO /home/minhnhut/Documents/EdgeNPU/verification/uvm/agents/axil_agent/axil_driver.sv(140) @ 11335000: uvm_test_top.env.axil_agt.driver [AXIL_DRV] Read: addr=0x00000004, data=0x00000011
# UVM_INFO /home/minhnhut/Documents/EdgeNPU/verification/uvm/sequences/npu_base_seq.sv(46) @ 11335000: uvm_test_top.env.axil_agt.sequencer@@seq_0 [NPU_SEQ] Read: addr=0x00000004, data=0x00000011
# UVM_INFO /home/minhnhut/Documents/EdgeNPU/verification/uvm/agents/axil_agent/axil_driver.sv(140) @ 11385000: uvm_test_top.env.axil_agt.driver [AXIL_DRV] Read: addr=0x00000004, data=0x00000011
# UVM_INFO /home/minhnhut/Documents/EdgeNPU/verification/uvm/sequences/npu_base_seq.sv(46) @ 11385000: uvm_test_top.env.axil_agt.sequencer@@seq_0 [NPU_SEQ] Read: addr=0x00000004, data=0x00000011
# UVM_INFO /home/minhnhut/Documents/EdgeNPU/verification/uvm/agents/axil_agent/axil_driver.sv(140) @ 11435000: uvm_test_top.env.axil_agt.driver [AXIL_DRV] Read: addr=0x00000004, data=0x00000011
# UVM_INFO /home/minhnhut/Documents/EdgeNPU/verification/uvm/sequences/npu_base_seq.sv(46) @ 11435000: uvm_test_top.env.axil_agt.sequencer@@seq_0 [NPU_SEQ] Read: addr=0x00000004, data=0x00000011
# UVM_INFO /home/minhnhut/Documents/EdgeNPU/verification/uvm/agents/axil_agent/axil_driver.sv(140) @ 11485000: uvm_test_top.env.axil_agt.driver [AXIL_DRV] Read: addr=0x00000004, data=0x00000011
# UVM_INFO /home/minhnhut/Documents/EdgeNPU/verification/uvm/sequences/npu_base_seq.sv(46) @ 11485000: uvm_test_top.env.axil_agt.sequencer@@seq_0 [NPU_SEQ] Read: addr=0x00000004, data=0x00000011
# UVM_INFO /home/minhnhut/Documents/EdgeNPU/verification/uvm/agents/axil_agent/axil_driver.sv(140) @ 11535000: uvm_test_top.env.axil_agt.driver [AXIL_DRV] Read: addr=0x00000004, data=0x00000011
# UVM_INFO /home/minhnhut/Documents/EdgeNPU/verification/uvm/sequences/npu_base_seq.sv(46) @ 11535000: uvm_test_top.env.axil_agt.sequencer@@seq_0 [NPU_SEQ] Read: addr=0x00000004, data=0x00000011
# UVM_INFO /home/minhnhut/Documents/EdgeNPU/verification/uvm/agents/axil_agent/axil_driver.sv(140) @ 11585000: uvm_test_top.env.axil_agt.driver [AXIL_DRV] Read: addr=0x00000004, data=0x00000011
# UVM_INFO /home/minhnhut/Documents/EdgeNPU/verification/uvm/sequences/npu_base_seq.sv(46) @ 11585000: uvm_test_top.env.axil_agt.sequencer@@seq_0 [NPU_SEQ] Read: addr=0x00000004, data=0x00000011
# UVM_INFO /home/minhnhut/Documents/EdgeNPU/verification/uvm/agents/axil_agent/axil_driver.sv(140) @ 11635000: uvm_test_top.env.axil_agt.driver [AXIL_DRV] Read: addr=0x00000004, data=0x00000011
# UVM_INFO /home/minhnhut/Documents/EdgeNPU/verification/uvm/sequences/npu_base_seq.sv(46) @ 11635000: uvm_test_top.env.axil_agt.sequencer@@seq_0 [NPU_SEQ] Read: addr=0x00000004, data=0x00000011
# UVM_INFO /home/minhnhut/Documents/EdgeNPU/verification/uvm/agents/axil_agent/axil_driver.sv(140) @ 11685000: uvm_test_top.env.axil_agt.driver [AXIL_DRV] Read: addr=0x00000004, data=0x00000011
# UVM_INFO /home/minhnhut/Documents/EdgeNPU/verification/uvm/sequences/npu_base_seq.sv(46) @ 11685000: uvm_test_top.env.axil_agt.sequencer@@seq_0 [NPU_SEQ] Read: addr=0x00000004, data=0x00000011
# UVM_INFO /home/minhnhut/Documents/EdgeNPU/verification/uvm/agents/axil_agent/axil_driver.sv(140) @ 11735000: uvm_test_top.env.axil_agt.driver [AXIL_DRV] Read: addr=0x00000004, data=0x00000011
# UVM_INFO /home/minhnhut/Documents/EdgeNPU/verification/uvm/sequences/npu_base_seq.sv(46) @ 11735000: uvm_test_top.env.axil_agt.sequencer@@seq_0 [NPU_SEQ] Read: addr=0x00000004, data=0x00000011
# UVM_INFO /home/minhnhut/Documents/EdgeNPU/verification/uvm/agents/axil_agent/axil_driver.sv(140) @ 11785000: uvm_test_top.env.axil_agt.driver [AXIL_DRV] Read: addr=0x00000004, data=0x00000011
# UVM_INFO /home/minhnhut/Documents/EdgeNPU/verification/uvm/sequences/npu_base_seq.sv(46) @ 11785000: uvm_test_top.env.axil_agt.sequencer@@seq_0 [NPU_SEQ] Read: addr=0x00000004, data=0x00000011
# UVM_INFO /home/minhnhut/Documents/EdgeNPU/verification/uvm/agents/axil_agent/axil_driver.sv(140) @ 11835000: uvm_test_top.env.axil_agt.driver [AXIL_DRV] Read: addr=0x00000004, data=0x00000011
# UVM_INFO /home/minhnhut/Documents/EdgeNPU/verification/uvm/sequences/npu_base_seq.sv(46) @ 11835000: uvm_test_top.env.axil_agt.sequencer@@seq_0 [NPU_SEQ] Read: addr=0x00000004, data=0x00000011
# UVM_INFO /home/minhnhut/Documents/EdgeNPU/verification/uvm/agents/axil_agent/axil_driver.sv(140) @ 11885000: uvm_test_top.env.axil_agt.driver [AXIL_DRV] Read: addr=0x00000004, data=0x00000011
# UVM_INFO /home/minhnhut/Documents/EdgeNPU/verification/uvm/sequences/npu_base_seq.sv(46) @ 11885000: uvm_test_top.env.axil_agt.sequencer@@seq_0 [NPU_SEQ] Read: addr=0x00000004, data=0x00000011
# UVM_INFO /home/minhnhut/Documents/EdgeNPU/verification/uvm/agents/axil_agent/axil_driver.sv(140) @ 11935000: uvm_test_top.env.axil_agt.driver [AXIL_DRV] Read: addr=0x00000004, data=0x00000011
# UVM_INFO /home/minhnhut/Documents/EdgeNPU/verification/uvm/sequences/npu_base_seq.sv(46) @ 11935000: uvm_test_top.env.axil_agt.sequencer@@seq_0 [NPU_SEQ] Read: addr=0x00000004, data=0x00000011
# UVM_INFO /home/minhnhut/Documents/EdgeNPU/verification/uvm/agents/axil_agent/axil_driver.sv(140) @ 11985000: uvm_test_top.env.axil_agt.driver [AXIL_DRV] Read: addr=0x00000004, data=0x00000011
# UVM_INFO /home/minhnhut/Documents/EdgeNPU/verification/uvm/sequences/npu_base_seq.sv(46) @ 11985000: uvm_test_top.env.axil_agt.sequencer@@seq_0 [NPU_SEQ] Read: addr=0x00000004, data=0x00000011
# UVM_INFO /home/minhnhut/Documents/EdgeNPU/verification/uvm/agents/axil_agent/axil_driver.sv(140) @ 12035000: uvm_test_top.env.axil_agt.driver [AXIL_DRV] Read: addr=0x00000004, data=0x00000011
